;$FILEVERSION=1.1
;$STARTTIME=46071.8551269792
;
;   Start time: 2/18/2026 20:31:22.971.0
;   Generated by PCAN-View v5.3.2.952
;
;   Message Number
;   |         Time Offset (ms)
;   |         |        Type
;   |         |        |        ID (hex)
;   |         |        |        |     Data Length
;   |         |        |        |     |   Data Bytes (hex) ...
;   |         |        |        |     |   |
;---+--   ----+----  --+--  ----+---  +  -+ -- -- -- -- -- -- --
     1)      1539.4  Rx         0001  7  11 FF 00 00 00 00 00 
     2)      1539.6  Rx         0001  7  11 01 81 16 92 AE 01 
     3)      1540.2  Rx         0002  6  11 01 81 16 92 AE 
     4)      1541.7  Rx         0001  6  19 01 50 CE E3 62 
     5)      1542.4  Rx         0002  3  19 01 01 
     6)      1544.0  Rx         0001  7  11 01 81 16 92 AE 01 
     7)      1544.6  Rx         0002  6  11 01 81 16 92 AE 
     8)      1561.4  Rx         0001  8  0C 01 00 C1 00 00 FF FF 
     9)      3399.5  Rx         0002  3  0C 01 01 
    10)      3401.0  Rx         0001  8  0C 01 00 C2 00 00 DE FF 
    11)      5002.1  Rx         0002  3  0C 01 01 
    12)      5004.4  Rx         0001  6  0D 01 00 E0 80 00 
    13)      5005.0  Rx         0002  2  0D 01 
    14)      5006.1  Rx         0001  8  05 01 00 00 06 02 EA 27 
    15)      5006.1  Rx         0001  8  05 01 92 7E EA 27 92 7A 
    16)      5006.1  Rx         0001  8  05 01 01 00 00 00 80 00 
    17)      5006.2  Rx         0001  8  05 01 C1 00 80 DE 01 00 
    18)      5006.2  Rx         0001  8  05 01 67 CC 11 5D 51 3F 
    19)      5006.2  Rx         0001  8  05 01 30 B7 01 00 00 00 
    20)      5006.2  Rx         0001  8  05 01 62 E3 CE 50 00 00 
    21)      5006.3  Rx         0001  8  05 01 00 00 00 00 00 00 
    22)      5006.3  Rx         0001  8  05 01 00 00 00 00 00 00 
    23)      5006.3  Rx         0001  8  05 01 00 00 FA 77 C2 00 
    24)      5006.4  Rx         0001  8  05 01 00 00 00 00 01 00 
    25)      5007.8  Rx         0001  2  02 01 
    26)      5009.3  Rx         0002  6  02 01 00 42 00 00 
    27)      5010.4  Rx         0001  8  05 01 00 00 00 00 00 00 
    28)      5010.4  Rx         0001  8  05 01 02 00 00 00 0F 46 
    29)      5010.4  Rx         0001  8  05 01 AA F8 00 00 00 00 
    30)      5010.5  Rx         0001  8  05 01 F4 01 00 00 00 00 
    31)      5010.5  Rx         0001  8  05 01 00 00 00 00 00 00 
    32)      5010.5  Rx         0001  8  05 01 80 CD CA 57 00 00 
    33)      5010.5  Rx         0001  8  05 01 00 00 00 00 00 00 
    34)      5010.6  Rx         0001  8  05 01 00 00 00 00 00 00 
    35)      5010.6  Rx         0001  8  05 01 00 00 00 00 00 00 
    36)      5010.6  Rx         0001  8  05 01 00 00 00 00 03 15 
    37)      5010.7  Rx         0001  8  05 01 E0 27 28 F2 F0 D2 
    38)      5012.0  Rx         0001  2  02 01 
    39)      5013.7  Rx         0002  6  02 01 00 42 00 00 
    40)      5014.9  Rx         0001  8  05 01 F0 E3 B3 FF 00 03 
    41)      5014.9  Rx         0001  8  05 01 B3 FF 20 03 B3 FF 
    42)      5014.9  Rx         0001  8  05 01 08 01 88 0F 88 1F 
    43)      5015.0  Rx         0001  8  05 01 88 6F 88 7F 88 8F 
    44)      5015.1  Rx         0001  8  05 01 88 9F 88 AF 26 FF 
    45)      5015.1  Rx         0001  8  05 01 1A 00 08 D4 18 E0 
    46)      5015.1  Rx         0001  8  05 01 F0 02 C4 4F 18 00 
    47)      5015.2  Rx         0001  8  05 01 C4 BF 14 00 C4 CF 
    48)      5015.3  Rx         0001  8  05 01 12 00 E4 AF 16 00 
    49)      5015.4  Rx         0001  8  05 01 E4 BF 10 00 DC 0E 
    50)      5015.4  Rx         0001  8  05 01 A9 9D F0 DB F0 EC 
    51)      5016.9  Rx         0001  2  02 01 
    52)      5018.1  Rx         0002  6  02 01 00 42 00 00 
    53)      5019.1  Rx         0001  8  05 01 08 D2 18 E0 08 B1 
    54)      5019.2  Rx         0001  8  05 01 18 C0 E4 9F 11 00 
    55)      5019.2  Rx         0001  8  05 01 C4 DF 0E 00 C4 EF 
    56)      5019.2  Rx         0001  8  05 01 0C 00 DC 0E A9 8D 
    57)      5019.3  Rx         0001  8  05 01 C4 BF 0A 00 C4 CF 
    58)      5019.3  Rx         0001  8  05 01 08 00 F0 83 DC 0C 
    59)      5019.3  Rx         0001  8  05 01 A9 BB F0 B2 F0 C3 
    60)      5019.4  Rx         0001  8  05 01 08 26 18 30 08 B7 
    61)      5019.4  Rx         0001  8  05 01 18 C0 DC 03 A9 72 
    62)      5019.4  Rx         0001  8  05 01 F0 E0 F0 28 08 E3 
    63)      5019.4  Rx         0001  8  05 01 18 20 DC 0C A9 AB 
    64)      5020.9  Rx         0001  2  02 01 
    65)      5022.4  Rx         0002  6  02 01 00 42 00 00 
    66)      5023.5  Rx         0001  8  05 01 DC 08 A9 60 C4 EF 
    67)      5023.5  Rx         0001  8  05 01 06 00 C4 2F 04 00 
    68)      5023.5  Rx         0001  8  05 01 DC 02 A9 5E F0 E0 
    69)      5023.6  Rx         0001  8  05 01 F0 98 08 E2 18 90 
    70)      5023.6  Rx         0001  8  05 01 08 01 18 80 F0 DF 
    71)      5023.6  Rx         0001  8  05 01 66 FD FF 3F 76 FD 
    72)      5023.7  Rx         0001  8  05 01 00 C0 E6 FC 00 00 
    73)      5023.7  Rx         0001  8  05 01 E0 2B 00 BF 66 FB 
    74)      5023.7  Rx         0001  8  05 01 FF 3F 76 FB 00 C0 
    75)      5023.7  Rx         0001  8  05 01 DC 09 A9 4E DC 08 
    76)      5023.8  Rx         0001  8  05 01 A9 90 49 91 3D 07 
    77)      5026.0  Rx         0001  2  02 01 
    78)      5026.7  Rx         0002  6  02 01 00 42 00 00 
    79)      5027.8  Rx         0001  8  05 01 88 4F D4 4F 1A 00 
    80)      5027.8  Rx         0001  8  05 01 F0 EC DA C1 DC EC 
    81)      5027.8  Rx         0001  8  05 01 0D 06 88 4F D4 4F 
    82)      5027.9  Rx         0001  8  05 01 1A 00 F0 EC DA C1 
    83)      5027.9  Rx         0001  8  05 01 12 13 08 F2 E0 0C 
    84)      5027.9  Rx         0001  8  05 01 E6 F1 1A A2 E6 FD 
    85)      5028.0  Rx         0001  8  05 01 00 00 F4 9F 11 00 
    86)      5028.0  Rx         0001  8  05 01 C0 9B A3 BC 62 00 
    87)      5028.0  Rx         0001  8  05 01 C3 99 20 00 C3 AA 
    88)      5028.1  Rx         0001  8  05 01 08 00 F0 51 F0 3D 
    89)      5028.1  Rx         0001  8  05 01 00 59 10 3A E6 FE 
    90)      5029.9  Rx         0001  2  02 01 
    91)      5031.0  Rx         0002  6  02 01 00 42 00 00 
    92)      5032.1  Rx         0001  8  05 01 2A A2 E6 F4 00 00 
    93)      5032.1  Rx         0001  8  05 01 F0 6E F0 74 00 69 
    94)      5032.1  Rx         0001  8  05 01 10 7A F4 5F 10 00 
    95)      5032.2  Rx         0001  8  05 01 49 51 3D 1F D4 BF 
    96)      5032.2  Rx         0001  8  05 01 18 00 E6 FC FF FF 
    97)      5032.2  Rx         0001  8  05 01 A3 BC 00 00 C3 CC 
    98)      5032.2  Rx         0001  8  05 01 20 00 C3 22 08 00 
    99)      5032.3  Rx         0001  8  05 01 E6 FB 10 27 F6 FC 
   100)      5032.4  Rx         0001  8  05 01 0E FE F6 F2 0C FE 
   101)      5032.4  Rx         0001  8  05 01 7B BB F2 FB 0E FE 
   102)      5032.4  Rx         0001  8  05 01 DC 03 B8 B5 E6 FB 
   103)      5033.8  Rx         0001  2  02 01 
   104)      5035.3  Rx         0002  6  02 01 00 42 00 00 
   105)      5036.4  Rx         0001  8  05 01 A0 0F F6 FC 0E FE 
   106)      5036.4  Rx         0001  8  05 01 F6 F2 0C FE 7B BB 
   107)      5036.4  Rx         0001  8  05 01 F2 FB 0E FE 0D 03 
   108)      5036.5  Rx         0001  8  05 01 E0 0B DC 03 B8 B5 
   109)      5036.5  Rx         0001  8  05 01 DC 07 B8 B6 DC 08 
   110)      5036.5  Rx         0001  8  05 01 A9 B0 3D 4F E6 F3 
   111)      5036.5  Rx         0001  8  05 01 28 D9 E6 F8 C2 00 
   112)      5036.6  Rx         0001  8  05 01 E6 FB 0A A2 E6 FC 
   113)      5036.6  Rx         0001  8  05 01 00 00 00 9B 10 AC 
   114)      5036.6  Rx         0001  8  05 01 E1 7B F0 C3 F0 68 
   115)      5036.7  Rx         0001  8  05 01 08 C3 18 60 D4 2F 
   116)      5037.9  Rx         0001  2  02 01 
   117)      5039.6  Rx         0002  6  02 01 00 42 00 00 
   118)      5040.6  Rx         0001  8  05 01 06 00 D4 BF 04 00 
   119)      5040.7  Rx         0001  8  05 01 DC 06 A9 AC DC 0B 
   120)      5040.7  Rx         0001  8  05 01 49 AA 3D 32 F0 B3 
   121)      5040.7  Rx         0001  8  05 01 F0 C8 08 B1 18 C0 
   122)      5040.8  Rx         0001  8  05 01 DC 0C A9 AB 3D 2B 
   123)      5040.8  Rx         0001  8  05 01 F0 B3 F0 C8 08 B4 
   124)      5040.8  Rx         0001  8  05 01 18 C0 DC 0C A9 AB 
   125)      5040.9  Rx         0001  8  05 01 C0 AB E0 0C A3 BC 
   126)      5040.9  Rx         0001  8  05 01 62 00 C3 66 20 00 
   127)      5040.9  Rx         0001  8  05 01 C3 22 08 00 F0 C1 
   128)      5041.0  Rx         0001  8  05 01 F0 BD 00 C6 10 B2 
   129)      5042.9  Rx         0001  2  02 01 
   130)      5043.9  Rx         0002  6  02 01 00 42 00 00 
   131)      5044.9  Rx         0001  8  05 01 DC 0B A8 7C 2D 16 
   132)      5044.9  Rx         0001  8  05 01 F0 09 F0 7A 06 F0 
   133)      5044.9  Rx         0001  8  05 01 10 00 18 70 DC 07 
   134)      5045.0  Rx         0001  8  05 01 A8 70 DC 0B B8 7C 
   135)      5045.0  Rx         0001  8  05 01 F0 CE F0 74 00 C6 
   136)      5045.0  Rx         0001  8  05 01 10 72 F0 B9 F0 2A 
   137)      5045.1  Rx         0001  8  05 01 06 FB 20 00 18 20 
   138)      5045.1  Rx         0001  8  05 01 DC 02 A8 BB DC 07 
   139)      5045.1  Rx         0001  8  05 01 B8 BC 06 F3 08 00 
   140)      5045.2  Rx         0001  8  05 01 18 80 29 B1 9D BC 
   141)      5045.2  Rx         0001  8  05 01 F4 9F 11 00 C0 9B 
   142)      5046.9  Rx         0001  2  02 01 
   143)      5048.1  Rx         0002  6  02 01 00 42 00 00 
   144)      5049.2  Rx         0001  8  05 01 E0 0C E6 FD 12 A2 
   145)      5049.3  Rx         0001  8  05 01 E6 FE 00 00 00 BD 
   146)      5049.3  Rx         0001  8  05 01 10 CE F4 9F 16 00 
   147)      5049.3  Rx         0001  8  05 01 DC 0C B9 9B D4 BF 
   148)      5049.4  Rx         0001  8  05 01 0A 00 D4 CF 08 00 
   149)      5049.4  Rx         0001  8  05 01 DC 0C A9 4B D4 BF 
   150)      5049.4  Rx         0001  8  05 01 0E 00 D4 CF 0C 00 
   151)      5049.5  Rx         0001  8  05 01 DC 0C A9 5B D4 BF 
   152)      5049.5  Rx         0001  8  05 01 14 00 D4 CF 12 00 
   153)      5049.5  Rx         0001  8  05 01 DC 0C A9 7B E1 16 
   154)      5049.5  Rx         0001  8  05 01 DA C2 7C 58 06 FF 
   155)      5050.8  Rx         0001  2  02 01 
   156)      5052.5  Rx         0002  6  02 01 00 42 00 00 
   157)      5053.6  Rx         0001  8  05 01 1A 00 98 AF 98 9F 
   158)      5053.6  Rx         0001  8  05 01 98 8F 98 7F 98 6F 
   159)      5053.6  Rx         0001  8  05 01 98 1F 98 0F 94 0F 
   160)      5053.6  Rx         0001  8  05 01 5E FE 08 F2 94 0F 
   161)      5053.7  Rx         0001  8  05 01 5C FE 08 F2 94 0F 
   162)      5053.7  Rx         0001  8  05 01 DE FF 08 F2 DB 00 
   163)      5053.7  Rx         0001  8  05 01 88 0F 88 1F 88 6F 
   164)      5053.8  Rx         0001  8  05 01 88 7F 88 8F 88 9F 
   165)      5053.9  Rx         0001  8  05 01 88 AF 26 FF 10 00 
   166)      5053.9  Rx         0001  8  05 01 F0 8F F0 7B F0 9C 
   167)      5054.0  Rx         0001  8  05 01 C4 D8 0C 00 C4 E8 
   168)      5055.9  Rx         0001  2  02 01 
   169)      5056.8  Rx         0002  6  02 01 00 42 00 00 
   170)      5057.8  Rx         0001  8  05 01 0A 00 D4 B8 1E 00 
   171)      5057.9  Rx         0001  8  05 01 C4 B8 08 00 D4 B8 
   172)      5057.9  Rx         0001  8  05 01 20 00 C4 B8 06 00 
   173)      5057.9  Rx         0001  8  05 01 D4 B8 22 00 C4 B8 
   174)      5058.0  Rx         0001  8  05 01 04 00 D4 B8 24 00 
   175)      5058.0  Rx         0001  8  05 01 C4 B8 02 00 D4 18 
   176)      5058.0  Rx         0001  8  05 01 26 00 D4 08 28 00 
   177)      5058.1  Rx         0001  8  05 01 F1 88 3D 04 F0 B2 
   178)      5058.1  Rx         0001  8  05 01 F0 C3 08 B7 0D 04 
   179)      5058.1  Rx         0001  8  05 01 F0 B2 F0 C3 06 FB 
   180)      5058.1  Rx         0001  8  05 01 0C 00 18 C0 DC 0C 
   181)      5060.0  Rx         0001  2  02 01 
   182)      5061.1  Rx         0002  6  02 01 00 42 00 00 
   183)      5062.2  Rx         0001  8  05 01 A9 9B C0 9B E0 EC 
   184)      5062.2  Rx         0001  8  05 01 1B BC F0 CF F2 FB 
   185)      5062.2  Rx         0001  8  05 01 0E FE 08 B2 20 FB 
   186)      5062.3  Rx         0001  8  05 01 F0 BF 08 B2 B8 CF 
   187)      5062.3  Rx         0001  8  05 01 C4 B8 0E 00 49 80 
   188)      5062.3  Rx         0001  8  05 01 3D 05 F0 A2 F0 63 
   189)      5062.3  Rx         0001  8  05 01 06 FA 1C 00 0D 04 
   190)      5062.4  Rx         0001  8  05 01 F0 A2 F0 63 06 FA 
   191)      5062.4  Rx         0001  8  05 01 20 00 18 60 49 80 
   192)      5062.4  Rx         0001  8  05 01 3D 04 F0 B2 F0 C3 
   193)      5062.5  Rx         0001  8  05 01 08 B6 0D 04 F0 B2 
   194)      5063.9  Rx         0001  2  02 01 
   195)      5065.4  Rx         0002  6  02 01 00 42 00 00 
   196)      5066.5  Rx         0001  8  05 01 F0 C3 06 FB 0D 00 
   197)      5066.5  Rx         0001  8  05 01 18 C0 DC 0C A9 9B 
   198)      5066.5  Rx         0001  8  05 01 C0 9B 49 80 3D 02 
   199)      5066.6  Rx         0001  8  05 01 08 27 0D 02 06 F2 
   200)      5066.6  Rx         0001  8  05 01 0C 00 18 30 DC 03 
   201)      5066.6  Rx         0001  8  05 01 A9 92 C0 93 F0 2B 
   202)      5066.7  Rx         0001  8  05 01 D4 B8 0E 00 F0 5B 
   203)      5066.7  Rx         0001  8  05 01 2D 09 7C E5 5C 15 
   204)      5066.7  Rx         0001  8  05 01 D4 55 00 FE 4A F5 
   205)      5066.7  Rx         0001  8  05 01 FB 0E 4A F5 FB 1F 
   206)      5066.8  Rx         0001  8  05 01 7C 25 F0 C8 66 FC 
   207)      5067.9  Rx         0001  2  02 01 
   208)      5069.7  Rx         0002  6  02 01 00 42 00 00 
   209)      5070.7  Rx         0001  8  05 01 FF 3F 76 FC 00 C0 
   210)      5070.8  Rx         0001  8  05 01 F0 4B F1 56 F0 BC 
   211)      5070.8  Rx         0001  8  05 01 E6 FC 00 00 DA C1 
   212)      5070.9  Rx         0001  8  05 01 62 B4 DC 06 B8 2A 
   213)      5071.0  Rx         0001  8  05 01 E0 0A D4 68 0E 00 
   214)      5071.0  Rx         0001  8  05 01 A9 98 EA 21 4E 05 
   215)      5071.0  Rx         0001  8  05 01 D4 B6 0C 00 D4 C6 
   216)      5071.1  Rx         0001  8  05 01 0A 00 26 FC A0 00 
   217)      5071.1  Rx         0001  8  05 01 38 B0 46 FC 65 06 
   218)      5071.1  Rx         0001  8  05 01 38 B0 EA E0 3E 05 
   219)      5071.1  Rx         0001  8  05 01 5C 1C D7 00 C2 00 
   220)      5072.9  Rx         0001  2  02 01 
   221)      5074.0  Rx         0002  6  02 01 00 42 00 00 
   222)      5075.0  Rx         0001  8  05 01 D4 CC CE A9 9C 0C 
   223)      5075.0  Rx         0001  8  05 01 F0 46 F0 56 2D 09 
   224)      5075.0  Rx         0001  8  05 01 7C E5 5C 15 D4 55 
   225)      5075.1  Rx         0001  8  05 01 00 FE 4A F5 F4 0E 
   226)      5075.1  Rx         0001  8  05 01 4A F5 F4 1F 7C 25 
   227)      5075.1  Rx         0001  8  05 01 F0 27 F0 39 DA C1 
   228)      5075.1  Rx         0001  8  05 01 4C 24 F0 46 F0 56 
   229)      5075.2  Rx         0001  8  05 01 2D 09 7C E5 5C 15 
   230)      5075.2  Rx         0001  8  05 01 D4 55 00 FE 4A F5 
   231)      5075.2  Rx         0001  8  05 01 F4 0E 4A F5 F4 1F 
   232)      5075.3  Rx         0001  8  05 01 7C 25 F0 27 F0 39 
   233)      5077.0  Rx         0001  2  02 01 
   234)      5078.2  Rx         0002  6  02 01 00 42 00 00 
   235)      5079.3  Rx         0001  8  05 01 DA C1 4C 24 F0 46 
   236)      5079.3  Rx         0001  8  05 01 F0 56 2D 09 7C E5 
   237)      5079.3  Rx         0001  8  05 01 5C 15 D4 55 00 FE 
   238)      5079.3  Rx         0001  8  05 01 4A F5 F4 0E 4A F5 
   239)      5079.4  Rx         0001  8  05 01 F4 1F 7C 25 F0 27 
   240)      5079.4  Rx         0001  8  05 01 F0 39 DA C1 4C 24 
   241)      5079.4  Rx         0001  8  05 01 0D 4B F0 46 F0 56 
   242)      5079.5  Rx         0001  8  05 01 2D 09 7C E5 5C 15 
   243)      5079.5  Rx         0001  8  05 01 D4 55 00 FE 4A F5 
   244)      5079.5  Rx         0001  8  05 01 F4 0E 4A F5 F4 1F 
   245)      5079.5  Rx         0001  8  05 01 7C 25 D4 28 08 00 
   246)      5080.9  Rx         0001  2  02 01 
   247)      5082.5  Rx         0002  6  02 01 00 42 00 00 
   248)      5083.5  Rx         0001  8  05 01 D4 38 06 00 DA C1 
   249)      5083.6  Rx         0001  8  05 01 C0 6D 0D 48 F0 B6 
   250)      5083.6  Rx         0001  8  05 01 F0 C6 2D 09 7C EC 
   251)      5083.6  Rx         0001  8  05 01 5C 1C D4 CC 00 FE 
   252)      5083.7  Rx         0001  8  05 01 4A FC FB 0E 4A FC 
   253)      5083.7  Rx         0001  8  05 01 FB 1F 7C 2C D4 28 
   254)      5083.7  Rx         0001  8  05 01 0C 00 D4 38 0A 00 
   255)      5083.7  Rx         0001  8  05 01 F0 47 F0 59 DA C2 
   256)      5083.8  Rx         0001  8  05 01 9E A8 0D 33 F0 46 
   257)      5083.8  Rx         0001  8  05 01 F0 56 2D 09 7C E5 
   258)      5083.8  Rx         0001  8  05 01 5C 15 D4 55 00 FE 
   259)      5086.0  Rx         0001  2  02 01 
   260)      5086.8  Rx         0002  6  02 01 00 42 00 00 
   261)      5087.8  Rx         0001  8  05 01 4A F5 F4 0E 4A F5 
   262)      5087.9  Rx         0001  8  05 01 F4 1F 7C 25 F0 21 
   263)      5087.9  Rx         0001  8  05 01 F0 30 DA C2 1C 71 
   264)      5088.0  Rx         0001  8  05 01 0D 22 F0 46 F0 56 
   265)      5088.0  Rx         0001  8  05 01 2D 09 7C E5 5C 15 
   266)      5088.0  Rx         0001  8  05 01 D4 55 00 FE 4A F5 
   267)      5088.1  Rx         0001  8  05 01 F4 0E 4A F5 F4 1F 
   268)      5088.1  Rx         0001  8  05 01 7C 25 D4 28 04 00 
   269)      5088.1  Rx         0001  8  05 01 D4 38 02 00 DA C2 
   270)      5088.1  Rx         0001  8  05 01 C4 98 F0 46 F0 56 
   271)      5088.2  Rx         0001  8  05 01 2D 09 7C E5 5C 15 
   272)      5089.9  Rx         0001  2  02 01 
   273)      5091.1  Rx         0002  6  02 01 00 42 00 00 
   274)      5092.1  Rx         0001  8  05 01 D4 55 00 FE 4A F5 
   275)      5092.1  Rx         0001  8  05 01 F4 0E 4A F5 F4 1F 
   276)      5092.2  Rx         0001  8  05 01 7C 25 F0 27 F0 39 
   277)      5092.2  Rx         0001  8  05 01 DA C1 4C 24 06 F6 
   278)      5092.2  Rx         0001  8  05 01 0E 00 08 A1 A9 98 
   279)      5092.3  Rx         0001  8  05 01 C0 9B 40 AB EA C0 
   280)      5092.3  Rx         0001  8  05 01 02 04 D4 B8 0E 00 
   281)      5092.3  Rx         0001  8  05 01 D4 FB FE FF 06 FF 
   282)      5092.3  Rx         0001  8  05 01 10 00 98 AF 98 9F 
   283)      5092.4  Rx         0001  8  05 01 98 8F 98 7F 98 6F 
   284)      5092.4  Rx         0001  8  05 01 98 1F 98 0F DB 00 
   285)      5093.9  Rx         0001  2  02 01 
   286)      5095.3  Rx         0002  6  02 01 00 42 00 00 
   287)      5096.4  Rx         0001  8  05 01 28 F2 B3 FF 00 03 
   288)      5096.4  Rx         0001  8  05 01 B3 FF 20 03 B3 FF 
   289)      5096.5  Rx         0001  8  05 01 08 01 88 0F 88 1F 
   290)      5096.5  Rx         0001  8  05 01 88 6F 88 7F 88 8F 
   291)      5096.5  Rx         0001  8  05 01 88 9F 88 AF 26 FF 
   292)      5096.6  Rx         0001  8  05 01 0C 00 F0 94 F0 85 
   293)      5096.6  Rx         0001  8  05 01 E4 4F 06 00 F1 25 
   294)      5096.6  Rx         0001  8  05 01 C4 BF 0A 00 C4 CF 
   295)      5096.6  Rx         0001  8  05 01 08 00 84 0F 1C FF 
   296)      5096.7  Rx         0001  8  05 01 F1 94 47 F9 37 00 
   297)      5096.7  Rx         0001  8  05 01 8D 04 47 F9 39 00 
   298)      5097.9  Rx         0001  2  02 01 
   299)      5099.7  Rx         0002  6  02 01 00 42 00 00 
   300)      5100.8  Rx         0001  8  05 01 EA F0 BA 05 E6 FB 
   301)      5100.8  Rx         0001  8  05 01 22 00 B8 BF EA 00 
   302)      5100.8  Rx         0001  8  05 01 B0 07 F4 9F 06 00 
   303)      5100.9  Rx         0001  8  05 01 C0 9B E0 6C 1B BC 
   304)      5100.9  Rx         0001  8  05 01 E6 FC 14 A5 F2 FB 
   305)      5100.9  Rx         0001  8  05 01 0C FE C4 BF 04 00 
   306)      5101.0  Rx         0001  8  05 01 F2 FB 0E FE E6 FD 
   307)      5101.0  Rx         0001  8  05 01 00 00 D4 EF 04 00 
   308)      5101.0  Rx         0001  8  05 01 00 BC 10 ED C4 BF 
   309)      5101.1  Rx         0001  8  05 01 02 00 C4 EF 04 00 
   310)      5101.1  Rx         0001  8  05 01 DC 0E A9 9B EA 30 
   311)      5103.0  Rx         0001  2  02 01 
   312)      5104.0  Rx         0002  6  02 01 00 42 00 00 
   313)      5105.1  Rx         0001  8  05 01 FA 05 E6 FB 21 00 
   314)      5105.1  Rx         0001  8  05 01 B8 BF EA 00 B0 07 
   315)      5105.2  Rx         0001  8  05 01 F0 B8 70 B9 2D 06 
   316)      5105.2  Rx         0001  8  05 01 D4 BF 08 00 D4 CF 
   317)      5105.3  Rx         0001  8  05 01 0A 00 70 BC 3D 05 
   318)      5105.3  Rx         0001  8  05 01 E6 FB 1E 00 B8 BF 
   319)      5105.3  Rx         0001  8  05 01 EA 00 B0 07 E1 0B 
   320)      5105.4  Rx         0001  8  05 01 F4 9F 06 00 47 F9 
   321)      5105.4  Rx         0001  8  05 01 38 00 3D 01 E1 1B 
   322)      5105.5  Rx         0001  8  05 01 F1 9B 01 99 01 29 
   323)      5105.5  Rx         0001  8  05 01 F4 4F 06 00 E1 15 
   324)      5107.0  Rx         0001  2  02 01 
   325)      5108.3  Rx         0002  6  02 01 00 42 00 00 
   326)      5109.4  Rx         0001  8  05 01 DA C2 10 7D 41 42 
   327)      5109.4  Rx         0001  8  05 01 EA 90 52 06 E1 09 
   328)      5109.4  Rx         0001  8  05 01 D4 BF 0A 00 D4 CF 
   329)      5109.5  Rx         0001  8  05 01 08 00 DC 0C B9 9B 
   330)      5109.5  Rx         0001  8  05 01 E6 FB 46 00 B8 BF 
   331)      5109.5  Rx         0001  8  05 01 EA 00 B0 07 49 B0 
   332)      5109.6  Rx         0001  8  05 01 EA 20 80 06 E7 F4 
   333)      5109.6  Rx         0001  8  05 01 38 00 E1 15 E1 06 
   334)      5109.6  Rx         0001  8  05 01 E1 B7 DA C2 68 6F 
   335)      5109.6  Rx         0001  8  05 01 B8 2F E7 F4 38 00 
   336)      5109.7  Rx         0001  8  05 01 E7 F6 55 00 E1 15 
   337)      5110.9  Rx         0001  2  02 01 
   338)      5112.6  Rx         0002  6  02 01 00 42 00 00 
   339)      5113.6  Rx         0001  8  05 01 E1 77 DA C2 68 6F 
   340)      5113.7  Rx         0001  8  05 01 A8 BF 70 B2 B8 BF 
   341)      5113.7  Rx         0001  8  05 01 29 22 E1 03 F0 39 
   342)      5113.7  Rx         0001  8  05 01 49 20 EA F1 9C 07 
   343)      5113.8  Rx         0001  8  05 01 DC 08 A9 B3 08 31 
   344)      5113.8  Rx         0001  8  05 01 18 80 E0 09 F4 4F 
   345)      5113.9  Rx         0001  8  05 01 06 00 E1 15 DA C2 
   346)      5113.9  Rx         0001  8  05 01 10 7D F1 44 3D 03 
   347)      5113.9  Rx         0001  8  05 01 E6 F9 46 00 0D 73 
   348)      5114.0  Rx         0001  8  05 01 D4 DF 02 00 D4 EF 
   349)      5114.0  Rx         0001  8  05 01 04 00 08 D2 18 E0 
   350)      5115.9  Rx         0001  2  02 01 
   351)      5116.8  Rx         0002  6  02 01 00 42 00 00 
   352)      5120.5  Rx         0001  8  05 01 F0 BD F0 CE DC 0C 
   353)      5124.1  Rx         0001  8  05 01 A8 4B 08 B2 18 C0 
   354)      5124.3  Rx         0001  8  05 01 E6 F2 0A 02 DC 0C 
   355)      5124.4  Rx         0001  8  05 01 A8 BB DC 0B A9 94 
   356)      5124.4  Rx         0001  8  05 01 C0 9B 1B B2 E6 FA 
   357)      5124.5  Rx         0001  8  05 01 A6 A8 F2 F6 0C FE 
   358)      5124.5  Rx         0001  8  05 01 F2 F7 0E FE E6 FC 
   359)      5124.6  Rx         0001  8  05 01 00 00 00 7A 10 6C 
   360)      5124.6  Rx         0001  8  05 01 F0 47 F0 B6 06 F4 
   361)      5124.7  Rx         0001  8  05 01 02 01 18 B0 E6 F0 
   362)      5124.8  Rx         0001  8  05 01 A7 A8 DC 0B A9 94 
   363)      5125.8  Rx         0001  2  02 01 
   364)      5127.1  Rx         0002  6  02 01 00 42 00 00 
   365)      5128.2  Rx         0001  8  05 01 C0 94 E0 0B 00 44 
   366)      5128.4  Rx         0001  8  05 01 18 B0 00 74 10 6B 
   367)      5128.4  Rx         0001  8  05 01 F0 BD DC 06 B9 B7 
   368)      5128.5  Rx         0001  8  05 01 F0 4E DC 04 A8 5B 
   369)      5128.6  Rx         0001  8  05 01 08 B2 18 40 E6 F7 
   370)      5128.6  Rx         0001  8  05 01 00 00 DC 04 A8 BB 
   371)      5128.7  Rx         0001  8  05 01 DC 0B A9 95 C0 9B 
   372)      5128.8  Rx         0001  8  05 01 A3 B2 00 00 C3 44 
   373)      5128.9  Rx         0001  8  05 01 20 00 C3 BB 08 00 
   374)      5129.0  Rx         0001  8  05 01 F0 54 F0 6B 00 4A 
   375)      5129.2  Rx         0001  8  05 01 10 BC 06 F4 02 01 
   376)      5130.9  Rx         0001  2  02 01 
   377)      5131.5  Rx         0002  6  02 01 00 42 00 00 
   378)      5132.9  Rx         0001  8  05 01 18 B0 00 50 10 67 
   379)      5133.1  Rx         0001  8  05 01 DC 0B A9 94 C0 9B 
   380)      5133.3  Rx         0001  8  05 01 E0 04 00 BB 18 40 
   381)      5133.5  Rx         0001  8  05 01 00 5B 10 64 E1 79 
   382)      5133.6  Rx         0001  8  05 01 DC 06 B9 95 DC 0E 
   383)      5133.7  Rx         0001  8  05 01 A8 BD 08 D2 18 E0 
   384)      5133.8  Rx         0001  8  05 01 DC 0E A8 DD DC 0D 
   385)      5133.9  Rx         0001  8  05 01 A9 9B C0 9B 1B B2 
   386)      5133.9  Rx         0001  8  05 01 F2 FB 0C FE F2 FD 
   387)      5134.0  Rx         0001  8  05 01 0E FE 00 DA 10 BC 
   388)      5134.0  Rx         0001  8  05 01 06 FD 02 01 18 B0 
   389)      5135.9  Rx         0001  2  02 01 
   390)      5136.5  Rx         0002  6  02 01 00 42 00 00 
   391)      5137.6  Rx         0001  8  05 01 DC 0B A9 9D 47 F9 
   392)      5137.6  Rx         0001  8  05 01 80 00 9D 02 09 91 
   393)      5137.7  Rx         0001  8  05 01 0D 01 E1 09 DC 0B 
   394)      5137.7  Rx         0001  8  05 01 B9 9D A8 BF 70 B9 
   395)      5137.7  Rx         0001  8  05 01 B8 BF 09 31 41 32 
   396)      5137.8  Rx         0001  8  05 01 EA 80 8A 06 D4 BF 
   397)      5137.8  Rx         0001  8  05 01 0A 00 D4 CF 08 00 
   398)      5138.0  Rx         0001  8  05 01 DC 0C B9 3B F4 4F 
   399)      5138.1  Rx         0001  8  05 01 06 00 DA C1 6E 28 
   400)      5138.2  Rx         0001  8  05 01 A8 2F 06 FF 0C 00 
   401)      5138.2  Rx         0001  8  05 01 98 AF 98 9F 98 8F 
   402)      5139.9  Rx         0001  2  02 01 
   403)      5140.8  Rx         0002  6  02 01 00 42 00 00 
   404)      5141.8  Rx         0001  8  05 01 98 7F 98 6F 98 1F 
   405)      5141.9  Rx         0001  8  05 01 98 0F 94 0F 5E FE 
   406)      5141.9  Rx         0001  8  05 01 08 F2 94 0F 5C FE 
   407)      5141.9  Rx         0001  8  05 01 08 F2 94 0F DE FF 
   408)      5142.0  Rx         0001  8  05 01 08 F2 DB 00 F0 B2 
   409)      5142.0  Rx         0001  8  05 01 F0 C3 08 B2 18 C0 
   410)      5142.0  Rx         0001  8  05 01 88 0F 88 1F 88 6F 
   411)      5142.1  Rx         0001  8  05 01 88 7F 88 8F 88 9F 
   412)      5142.1  Rx         0001  8  05 01 88 AF F0 E2 F0 53 
   413)      5142.1  Rx         0001  8  05 01 06 FE 14 00 18 50 
   414)      5142.2  Rx         0001  8  05 01 DC 0C A8 DB 08 B2 
   415)      5143.9  Rx         0001  2  02 01 
   416)      5145.1  Rx         0002  6  02 01 00 42 00 00 
   417)      5146.1  Rx         0001  8  05 01 18 C0 26 FF 0A 00 
   418)      5146.1  Rx         0001  8  05 01 DC 0C A8 BB 06 FD 
   419)      5146.2  Rx         0001  8  05 01 08 00 18 B0 F0 45 
   420)      5146.2  Rx         0001  8  05 01 DC 0B A8 CD 08 D2 
   421)      5146.2  Rx         0001  8  05 01 18 B0 F0 82 DC 0B 
   422)      5146.2  Rx         0001  8  05 01 A8 BD F0 DE F0 03 
   423)      5146.3  Rx         0001  8  05 01 DC 04 B8 CD 08 D2 
   424)      5146.3  Rx         0001  8  05 01 18 40 F0 C3 DC 04 
   425)      5146.3  Rx         0001  8  05 01 B8 BD F0 B2 06 FB 
   426)      5146.4  Rx         0001  8  05 01 26 00 18 C0 C4 BF 
   427)      5146.4  Rx         0001  8  05 01 02 00 C4 CF 04 00 
   428)      5147.9  Rx         0001  2  02 01 
   429)      5149.3  Rx         0002  6  02 01 00 42 00 00 
   430)      5150.4  Rx         0001  8  05 01 F0 B2 F0 C3 08 B6 
   431)      5150.4  Rx         0001  8  05 01 18 C0 D4 4F 04 00 
   432)      5150.4  Rx         0001  8  05 01 DC 0C A8 DB 08 B2 
   433)      5150.5  Rx         0001  8  05 01 18 C0 06 F2 3C 00 
   434)      5150.5  Rx         0001  8  05 01 18 30 DC 0C A8 BB 
   435)      5150.5  Rx         0001  8  05 01 06 FD 08 00 18 B0 
   436)      5150.5  Rx         0001  8  05 01 DC 0B A8 CD 08 D2 
   437)      5150.6  Rx         0001  8  05 01 18 B0 DC 0B A8 BD 
   438)      5150.6  Rx         0001  8  05 01 D4 DF 02 00 DC 04 
   439)      5150.6  Rx         0001  8  05 01 B8 CD 08 D2 18 40 
   440)      5150.7  Rx         0001  8  05 01 F0 C0 DC 04 B8 BD 
   441)      5152.5  Rx         0001  2  02 01 
   442)      5153.6  Rx         0002  6  02 01 00 42 00 00 
   443)      5154.7  Rx         0001  8  05 01 C4 2F 06 00 C4 3F 
   444)      5154.7  Rx         0001  8  05 01 08 00 E0 0D DC 03 
   445)      5154.7  Rx         0001  8  05 01 B8 D2 08 22 18 30 
   446)      5154.7  Rx         0001  8  05 01 F0 B8 06 FB 2E 00 
   447)      5154.8  Rx         0001  8  05 01 18 C0 DC 03 B8 D2 
   448)      5154.8  Rx         0001  8  05 01 DC 0C A9 9B 49 91 
   449)      5154.8  Rx         0001  8  05 01 EA 21 0A 0A F0 78 
   450)      5154.9  Rx         0001  8  05 01 F0 B0 06 F7 2A 00 
   451)      5154.9  Rx         0001  8  05 01 18 B0 B8 BF F0 B8 
   452)      5154.9  Rx         0001  8  05 01 F0 C0 06 FB 3A 00 
   453)      5155.0  Rx         0001  8  05 01 18 C0 F0 98 F0 A0 
   454)      5156.5  Rx         0001  2  02 01 
   455)      5157.9  Rx         0002  6  02 01 00 42 00 00 
   456)      5159.0  Rx         0001  8  05 01 06 F9 18 00 18 A0 
   457)      5159.0  Rx         0001  8  05 01 DC 0C A9 9B 3D 0F 
   458)      5159.0  Rx         0001  8  05 01 DC 0A B8 D9 08 92 
   459)      5159.1  Rx         0001  8  05 01 18 A0 DC 0A B8 D9 
   460)      5159.1  Rx         0001  8  05 01 A8 BF DC 0B B8 D7 
   461)      5159.1  Rx         0001  8  05 01 08 72 18 B0 DC 0B 
   462)      5159.1  Rx         0001  8  05 01 B8 D7 EA 00 0A 0A 
   463)      5159.2  Rx         0001  8  05 01 28 F2 E1 19 F0 B8 
   464)      5159.2  Rx         0001  8  05 01 B9 9F DC 05 A8 2E 
   465)      5159.2  Rx         0001  8  05 01 08 E2 18 50 F0 C0 
   466)      5159.3  Rx         0001  8  05 01 06 FB 0A 00 18 C0 
   467)      5160.5  Rx         0001  2  02 01 
   468)      5162.2  Rx         0002  6  02 01 00 42 00 00 
   469)      5163.3  Rx         0001  8  05 01 DC 05 A8 3E DA C2 
   470)      5163.3  Rx         0001  8  05 01 16 8E F0 E2 DC 0C 
   471)      5163.3  Rx         0001  8  05 01 A8 2B 08 B2 18 C0 
   472)      5163.4  Rx         0001  8  05 01 F0 D3 DC 0C A8 3B 
   473)      5163.4  Rx         0001  8  05 01 F0 B8 F0 C0 06 FB 
   474)      5163.5  Rx         0001  8  05 01 0E 00 18 C0 DA C2 
   475)      5163.5  Rx         0001  8  05 01 16 8E F0 42 DC 0C 
   476)      5163.5  Rx         0001  8  05 01 A8 2B 08 B2 18 C0 
   477)      5163.5  Rx         0001  8  05 01 F0 53 DC 0C A8 3B 
   478)      5163.6  Rx         0001  8  05 01 DA C2 16 8E F0 B2 
   479)      5163.6  Rx         0001  8  05 01 F0 C3 F0 2E F0 3D 
   480)      5165.4  Rx         0001  2  02 01 
   481)      5166.5  Rx         0002  6  02 01 00 42 00 00 
   482)      5167.5  Rx         0001  8  05 01 DA C2 72 83 F0 B9 
   483)      5167.5  Rx         0001  8  05 01 F0 CA DC 0C B8 2B 
   484)      5167.6  Rx         0001  8  05 01 08 B2 18 C0 E1 19 
   485)      5167.6  Rx         0001  8  05 01 DC 0C B8 3B B9 9F 
   486)      5167.6  Rx         0001  8  05 01 D4 BF 04 00 D4 CF 
   487)      5167.7  Rx         0001  8  05 01 06 00 DC 0C A8 2B 
   488)      5167.7  Rx         0001  8  05 01 08 B2 18 C0 DC 0C 
   489)      5167.7  Rx         0001  8  05 01 A8 3B F0 B8 F0 C0 
   490)      5167.8  Rx         0001  8  05 01 06 FB 1C 00 18 C0 
   491)      5167.8  Rx         0001  8  05 01 DA C2 16 8E F0 E2 
   492)      5167.8  Rx         0001  8  05 01 DC 0C A8 2B 08 B2 
   493)      5169.5  Rx         0001  2  02 01 
   494)      5170.7  Rx         0002  6  02 01 00 42 00 00 
   495)      5171.8  Rx         0001  8  05 01 18 C0 06 F8 20 00 
   496)      5171.8  Rx         0001  8  05 01 18 00 F0 D3 DC 0C 
   497)      5171.9  Rx         0001  8  05 01 A8 3B DA C2 16 8E 
   498)      5171.9  Rx         0001  8  05 01 F0 42 DC 00 A8 28 
   499)      5171.9  Rx         0001  8  05 01 08 82 18 00 F0 53 
   500)      5172.0  Rx         0001  8  05 01 DC 00 A8 38 DA C2 
   501)      5172.0  Rx         0001  8  05 01 16 8E F0 B2 F0 C3 
   502)      5172.0  Rx         0001  8  05 01 F0 2E F0 3D DA C2 
   503)      5172.1  Rx         0001  8  05 01 72 83 08 F2 F0 B7 
   504)      5172.1  Rx         0001  8  05 01 A8 CF DC 0C B8 2B 
   505)      5172.1  Rx         0001  8  05 01 08 B2 18 C0 DC 0C 
   506)      5173.5  Rx         0001  2  02 01 
   507)      5175.0  Rx         0002  6  02 01 00 42 00 00 
   508)      5176.1  Rx         0001  8  05 01 B8 3B A8 BF DC 0B 
   509)      5176.1  Rx         0001  8  05 01 A8 47 08 72 18 B0 
   510)      5176.1  Rx         0001  8  05 01 DC 0A A8 29 08 92 
   511)      5176.2  Rx         0001  8  05 01 18 A0 DC 0B A8 57 
   512)      5176.2  Rx         0001  8  05 01 D4 BF 06 00 DC 0A 
   513)      5176.2  Rx         0001  8  05 01 A8 39 DA C2 C4 59 
   514)      5176.2  Rx         0001  8  05 01 E6 F5 00 3F E0 04 
   515)      5176.3  Rx         0001  8  05 01 DA C2 14 75 D4 CF 
   516)      5176.3  Rx         0001  8  05 01 08 00 DC 0C B8 2B 
   517)      5176.3  Rx         0001  8  05 01 08 B2 18 C0 DC 0C 
   518)      5176.4  Rx         0001  8  05 01 B8 3B 06 FF 0A 00 
   519)      5178.6  Rx         0001  2  02 01 
   520)      5179.3  Rx         0002  6  02 01 00 42 00 00 
   521)      5180.4  Rx         0001  8  05 01 98 AF 98 9F 98 8F 
   522)      5180.4  Rx         0001  8  05 01 98 7F 98 6F 98 1F 
   523)      5180.6  Rx         0001  8  05 01 98 0F DB 00 F0 0E 
   524)      5180.7  Rx         0001  8  05 01 F0 E5 F0 50 F0 0D 
   525)      5180.7  Rx         0001  8  05 01 F0 D4 F0 40 F0 0C 
   526)      5180.7  Rx         0001  8  05 01 F0 C3 F0 30 F0 0B 
   527)      5180.8  Rx         0001  8  05 01 F0 B2 F0 20 88 6F 
   528)      5180.9  Rx         0001  8  05 01 DA C2 A6 92 7A FA 
   529)      5180.9  Rx         0001  8  05 01 FA 10 48 60 EA 21 
   530)      5181.0  Rx         0001  8  05 01 34 0C 46 F6 FF 07 
   531)      5181.1  Rx         0001  8  05 01 EA 20 20 0C 48 10 
   532)      5182.7  Rx         0001  2  02 01 
   533)      5183.6  Rx         0002  6  02 01 00 42 00 00 
   534)      5185.0  Rx         0001  8  05 01 EA 21 5E 0C 46 F1 
   535)      5185.0  Rx         0001  8  05 01 FF 07 EA 20 4A 0C 
   536)      5185.1  Rx         0001  8  05 01 20 16 06 F1 00 04 
   537)      5185.2  Rx         0001  8  05 01 F0 6D EA 21 08 0C 
   538)      5185.3  Rx         0001  8  05 01 88 2F 88 3F 88 4F 
   539)      5185.3  Rx         0001  8  05 01 88 5F 5C BE F0 0D 
   540)      5185.4  Rx         0001  8  05 01 7C 50 70 E0 5C BD 
   541)      5185.5  Rx         0001  8  05 01 F0 0C 7C 50 70 D0 
   542)      5185.5  Rx         0001  8  05 01 5C BC F0 0B 7C 50 
   543)      5185.6  Rx         0001  8  05 01 70 C0 5C BB E6 06 
   544)      5185.6  Rx         0001  8  05 01 00 40 E6 07 00 00 
   545)      5187.4  Rx         0001  2  02 01 
   546)      5188.2  Rx         0002  6  02 01 00 42 00 00 
   547)      5189.3  Rx         0001  8  05 01 7B EE F2 F0 0C FE 
   548)      5189.4  Rx         0001  8  05 01 F2 F5 0E FE F6 F0 
   549)      5189.4  Rx         0001  8  05 01 0C FE E6 07 00 00 
   550)      5189.5  Rx         0001  8  05 01 7B EE F2 F4 0E FE 
   551)      5189.5  Rx         0001  8  05 01 F0 3D F0 2C 7C 12 
   552)      5189.5  Rx         0001  8  05 01 4A F3 F2 0F 7C 13 
   553)      5189.6  Rx         0001  8  05 01 F6 F3 0C FE F6 F2 
   554)      5189.6  Rx         0001  8  05 01 0E FE 7B EE F2 F3 
   555)      5189.6  Rx         0001  8  05 01 0E FE 1B 53 F2 F3 
   556)      5189.7  Rx         0001  8  05 01 0C FE F2 F2 0E FE 
   557)      5189.8  Rx         0001  8  05 01 5C 13 38 50 4A F2 
   558)      5191.5  Rx         0001  2  02 01 
   559)      5192.6  Rx         0002  6  02 01 00 42 00 00 
   560)      5193.7  Rx         0001  8  05 01 F3 F0 20 43 38 50 
   561)      5193.8  Rx         0001  8  05 01 00 44 10 55 9D 03 
   562)      5193.9  Rx         0001  8  05 01 F2 F4 1E FF F0 54 
   563)      5193.9  Rx         0001  8  05 01 1B 5B F2 F3 0C FE 
   564)      5194.0  Rx         0001  8  05 01 F2 F2 0E FE 1B 4C 
   565)      5194.1  Rx         0001  8  05 01 F2 FB 0C FE 02 F2 
   566)      5194.2  Rx         0001  8  05 01 0E FE 10 3B E0 0B 
   567)      5194.2  Rx         0001  8  05 01 18 B0 1B 5C F2 FC 
   568)      5194.3  Rx         0001  8  05 01 0C FE 02 F3 0E FE 
   569)      5194.4  Rx         0001  8  05 01 10 BC E0 0C 18 C0 
   570)      5194.4  Rx         0001  8  05 01 1B 4D F2 F0 0C FE 
   571)      5196.5  Rx         0001  2  02 01 
   572)      5197.0  Rx         0002  6  02 01 00 42 00 00 
   573)      5198.2  Rx         0001  8  05 01 02 F3 0E FE 10 B0 
   574)      5198.2  Rx         0001  8  05 01 18 C0 1B 5D F2 FD 
   575)      5198.3  Rx         0001  8  05 01 0C FE 02 FB 0E FE 
   576)      5198.3  Rx         0001  8  05 01 10 CD E0 0D 18 D0 
   577)      5198.3  Rx         0001  8  05 01 1B 4E F2 F0 0C FE 
   578)      5198.4  Rx         0001  8  05 01 02 FB 0E FE 10 C0 
   579)      5198.4  Rx         0001  8  05 01 18 D0 1B 5E F2 F2 
   580)      5198.4  Rx         0001  8  05 01 0C FE 02 FC 0E FE 
   581)      5198.5  Rx         0001  8  05 01 10 2D F0 EC F0 DB 
   582)      5198.5  Rx         0001  8  05 01 F0 C3 91 C0 91 D0 
   583)      5198.5  Rx         0001  8  05 01 91 E0 91 20 1B 5C 
   584)      5200.5  Rx         0001  2  02 01 
   585)      5201.4  Rx         0002  6  02 01 00 42 00 00 
   586)      5202.4  Rx         0001  8  05 01 F2 FB 0C FE 42 FB 
   587)      5202.5  Rx         0001  8  05 01 0E FE 1B 4D 02 FB 
   588)      5202.5  Rx         0001  8  05 01 0C FE F2 F3 0E FE 
   589)      5202.5  Rx         0001  8  05 01 E0 0C 18 C0 1B 5D 
   590)      5202.6  Rx         0001  8  05 01 F2 FD 0C FE 02 FB 
   591)      5202.6  Rx         0001  8  05 01 0E FE 10 CD E0 0D 
   592)      5202.6  Rx         0001  8  05 01 18 D0 1B 4E F2 F3 
   593)      5202.7  Rx         0001  8  05 01 0C FE 02 FB 0E FE 
   594)      5202.7  Rx         0001  8  05 01 10 C3 18 D0 1B 5E 
   595)      5202.7  Rx         0001  8  05 01 F2 F3 0C FE 02 FC 
   596)      5202.8  Rx         0001  8  05 01 0E FE 10 D3 E0 0E 
   597)      5204.5  Rx         0001  2  02 01 
   598)      5205.7  Rx         0002  6  02 01 00 42 00 00 
   599)      5206.8  Rx         0001  8  05 01 18 E0 1B 42 F2 F3 
   600)      5206.8  Rx         0001  8  05 01 0C FE 02 FC 0E FE 
   601)      5206.8  Rx         0001  8  05 01 10 D3 18 E0 1B 52 
   602)      5206.9  Rx         0001  8  05 01 02 FE 0C FE 02 FD 
   603)      5206.9  Rx         0001  8  05 01 0E FE 18 E0 8A FE 
   604)      5206.9  Rx         0001  8  05 01 05 F0 28 11 00 BB 
   605)      5207.0  Rx         0001  8  05 01 10 CC 10 DD 10 EE 
   606)      5207.0  Rx         0001  8  05 01 98 5F 98 4F 98 3F 
   607)      5207.0  Rx         0001  8  05 01 98 2F 3D 1B 70 23 
   608)      5207.1  Rx         0001  8  05 01 70 24 3D 17 46 F5 
   609)      5207.1  Rx         0001  8  05 01 10 00 3D 15 F0 0B 
   610)      5208.4  Rx         0001  2  02 01 
   611)      5210.0  Rx         0002  6  02 01 00 42 00 00 
   612)      5211.1  Rx         0001  8  05 01 5C 50 F0 2C 5C 52 
   613)      5211.1  Rx         0001  8  05 01 7C BB 70 2B F0 3D 
   614)      5211.2  Rx         0001  8  05 01 5C 53 7C BC 70 3C 
   615)      5211.2  Rx         0001  8  05 01 F0 4E 5C 54 7C BD 
   616)      5211.2  Rx         0001  8  05 01 70 4D F0 5E 7C B5 
   617)      5211.3  Rx         0001  8  05 01 28 11 98 6F FA C2 
   618)      5211.3  Rx         0001  8  05 01 56 96 E0 02 FA C2 
   619)      5211.3  Rx         0001  8  05 01 86 43 70 6C 70 6B 
   620)      5211.3  Rx         0001  8  05 01 EA 30 68 0A 46 FE 
   621)      5211.4  Rx         0001  8  05 01 10 00 EA 30 68 0A 
   622)      5211.4  Rx         0001  8  05 01 28 11 98 6F FA C2 
   623)      5213.5  Rx         0001  2  02 01 
   624)      5214.3  Rx         0002  6  02 01 00 42 00 00 
   625)      5215.4  Rx         0001  8  05 01 6A 96 48 E0 3D 15 
   626)      5215.4  Rx         0001  8  05 01 46 F1 FF 07 2D 12 
   627)      5215.5  Rx         0001  8  05 01 48 10 2D 18 98 6F 
   628)      5215.5  Rx         0001  8  05 01 FA C2 0E 9C 46 F1 
   629)      5215.5  Rx         0001  8  05 01 FF 07 2D 0D 48 10 
   630)      5215.6  Rx         0001  8  05 01 2D 03 98 6F FA C2 
   631)      5215.6  Rx         0001  8  05 01 EC 9B 98 6F FA C2 
   632)      5215.6  Rx         0001  8  05 01 FE 9B 48 50 2D 05 
   633)      5215.7  Rx         0001  8  05 01 98 6F FA C2 FE 9B 
   634)      5215.7  Rx         0001  8  05 01 48 50 3D FB 98 6F 
   635)      5215.7  Rx         0001  8  05 01 FA C2 EE 9B 98 6F 
   636)      5217.5  Rx         0001  2  02 01 
   637)      5218.6  Rx         0002  6  02 01 00 42 00 00 
   638)      5219.7  Rx         0001  8  05 01 FA C2 82 96 EC 06 
   639)      5219.7  Rx         0001  8  05 01 EC 07 EC EF EC 2E 
   640)      5219.8  Rx         0001  8  05 01 EC 2F EC F0 EC F2 
   641)      5219.8  Rx         0001  8  05 01 EC F3 EC F4 EC F5 
   642)      5219.8  Rx         0001  8  05 01 EC F6 EC F7 EC F8 
   643)      5219.9  Rx         0001  8  05 01 EC F9 EC FA EC FB 
   644)      5219.9  Rx         0001  8  05 01 EC FC EC FD EC FE 
   645)      5219.9  Rx         0001  8  05 01 E6 FB 07 FF D7 40 
   646)      5219.9  Rx         0001  8  05 01 03 00 F6 FB A2 20 
   647)      5220.0  Rx         0001  8  05 01 E1 09 D7 40 02 00 
   648)      5220.0  Rx         0001  8  05 01 43 F9 D3 23 EA 30 
   649)      5221.4  Rx         0001  2  02 01 
   650)      5222.9  Rx         0002  6  02 01 00 42 00 00 
   651)      5224.0  Rx         0001  8  05 01 74 0E E6 F8 E4 A3 
   652)      5224.0  Rx         0001  8  05 01 E6 F9 00 00 E6 FA 
   653)      5224.0  Rx         0001  8  05 01 80 A3 E6 F6 00 00 
   654)      5224.1  Rx         0001  8  05 01 E6 FB ED A3 E6 FC 
   655)      5224.1  Rx         0001  8  05 01 00 00 DC 0C A9 9B 
   656)      5224.1  Rx         0001  8  05 01 D7 40 02 00 43 F9 
   657)      5224.2  Rx         0001  8  05 01 EC 23 EA 90 DC 0D 
   658)      5224.2  Rx         0001  8  05 01 C0 9B F0 C8 F0 D9 
   659)      5224.2  Rx         0001  8  05 01 00 CB 18 D0 D7 40 
   660)      5224.2  Rx         0001  8  05 01 02 00 F3 F4 F2 23 
   661)      5224.3  Rx         0001  8  05 01 DC 0D A9 9C C0 9B 
   662)      5225.5  Rx         0001  2  02 01 
   663)      5227.2  Rx         0002  6  02 01 00 42 00 00 
   664)      5228.3  Rx         0001  8  05 01 E0 0C A3 BC 62 00 
   665)      5228.3  Rx         0001  8  05 01 C3 77 20 00 C3 00 
   666)      5228.4  Rx         0001  8  05 01 08 00 E6 FB D4 A3 
   667)      5228.4  Rx         0001  8  05 01 E6 FC 00 00 F0 D7 
   668)      5228.4  Rx         0001  8  05 01 F0 E0 00 DB 10 EC 
   669)      5228.5  Rx         0001  8  05 01 D7 40 02 00 F2 F4 
   670)      5228.5  Rx         0001  8  05 01 F0 23 DC 0E A8 3D 
   671)      5228.5  Rx         0001  8  05 01 DA C2 CA A0 F0 BA 
   672)      5228.6  Rx         0001  8  05 01 F0 C6 00 B7 10 C0 
   673)      5228.6  Rx         0001  8  05 01 E6 FD 00 00 DC 0C 
   674)      5228.6  Rx         0001  8  05 01 A8 BB D7 40 03 00 
   675)      5230.5  Rx         0001  2  02 01 
   676)      5231.5  Rx         0002  6  02 01 00 42 00 00 
   677)      5232.6  Rx         0001  8  05 01 F6 FB E8 20 D7 40 
   678)      5232.6  Rx         0001  8  05 01 02 00 C2 FB ED 23 
   679)      5232.7  Rx         0001  8  05 01 28 B1 F0 CB BC FC 
   680)      5232.7  Rx         0001  8  05 01 00 8B 10 9C E0 0C 
   681)      5232.7  Rx         0001  8  05 01 DC 09 A9 98 C0 9B 
   682)      5232.8  Rx         0001  8  05 01 A3 BC 22 00 A3 00 
   683)      5232.8  Rx         0001  8  05 01 82 03 C3 EE 20 00 
   684)      5232.8  Rx         0001  8  05 01 C3 55 08 00 E6 FB 
   685)      5233.0  Rx         0001  8  05 01 7E A3 00 EB 10 5D 
   686)      5233.0  Rx         0001  8  05 01 06 FE 12 00 18 50 
   687)      5233.0  Rx         0001  8  05 01 C0 9B 00 BB 18 C0 
   688)      5234.5  Rx         0001  2  02 01 
   689)      5235.8  Rx         0002  6  02 01 00 42 00 00 
   690)      5236.9  Rx         0001  8  05 01 00 AB 10 6C E0 44 
   691)      5236.9  Rx         0001  8  05 01 E0 13 C0 8B 4C 3B 
   692)      5237.0  Rx         0001  8  05 01 F0 2A F0 C3 DC 06 
   693)      5237.0  Rx         0001  8  05 01 68 CA 40 C3 3D 20 
   694)      5237.0  Rx         0001  8  05 01 C0 8B 28 B4 E0 0C 
   695)      5237.1  Rx         0001  8  05 01 00 BB 18 C0 F0 DE 
   696)      5237.1  Rx         0001  8  05 01 F0 25 00 DB 10 2C 
   697)      5237.1  Rx         0001  8  05 01 D7 40 03 00 F2 FB 
   698)      5237.1  Rx         0001  8  05 01 80 20 60 B3 40 B3 
   699)      5237.2  Rx         0001  8  05 01 3D 0C D7 40 02 00 
   700)      5237.2  Rx         0001  8  05 01 25 8F D2 23 C0 8B 
   701)      5238.5  Rx         0001  2  02 01 
   702)      5240.1  Rx         0002  6  02 01 00 42 00 00 
   703)      5242.0  Rx         0001  8  05 01 5C 1B 06 FB 40 E0 
   704)      5242.2  Rx         0001  8  05 01 E0 0C DC 0C A8 BB 
   705)      5242.4  Rx         0001  8  05 01 0D 02 E6 FB FF FF 
   706)      5249.3  Rx         0001  8  05 01 DC 02 B8 BD 80 74 
   707)      5249.5  Rx         0001  8  05 01 8D D5 D7 40 02 00 
   708)      5249.8  Rx         0001  8  05 01 25 8F ED 23 6F B8 
   709)      5249.9  Rx         0001  8  05 01 E6 FB 00 02 D7 40 
   710)      5250.0  Rx         0001  8  05 01 03 00 74 FB EC 20 
   711)      5250.1  Rx         0001  8  05 01 0D 4F C0 9B 28 B1 
   712)      5250.2  Rx         0001  8  05 01 F0 CB BC FC 00 8B 
   713)      5250.3  Rx         0001  8  05 01 10 9C E0 0C DC 09 
   714)      5252.0  Rx         0001  2  02 01 
   715)      5252.6  Rx         0002  6  02 01 00 42 00 00 
   716)      5253.7  Rx         0001  8  05 01 A9 98 C0 9B A3 BC 
   717)      5253.8  Rx         0001  8  05 01 22 00 A3 00 82 03 
   718)      5253.9  Rx         0001  8  05 01 C3 EE 20 00 C3 55 
   719)      5254.0  Rx         0001  8  05 01 08 00 E6 FB 7E A3 
   720)      5254.0  Rx         0001  8  05 01 E6 FD 00 00 00 EB 
   721)      5254.1  Rx         0001  8  05 01 10 5D 06 FE 12 00 
   722)      5254.2  Rx         0001  8  05 01 18 50 C0 9B 00 BB 
   723)      5254.3  Rx         0001  8  05 01 18 C0 00 AB 10 6C 
   724)      5254.4  Rx         0001  8  05 01 E0 44 E0 13 C0 8B 
   725)      5254.4  Rx         0001  8  05 01 4C 3B F0 2A F0 C3 
   726)      5254.5  Rx         0001  8  05 01 DC 06 68 CA 40 C3 
   727)      5256.0  Rx         0001  2  02 01 
   728)      5256.9  Rx         0002  6  02 01 00 42 00 00 
   729)      5258.0  Rx         0001  8  05 01 3D 20 C0 8B 28 B4 
   730)      5258.0  Rx         0001  8  05 01 E0 0C 00 BB 18 C0 
   731)      5258.0  Rx         0001  8  05 01 F0 DE F0 25 00 DB 
   732)      5258.1  Rx         0001  8  05 01 10 2C D7 40 03 00 
   733)      5258.1  Rx         0001  8  05 01 F2 FB 80 20 60 B3 
   734)      5258.8  Rx         0001  8  05 01 40 B3 3D 0C D7 40 
   735)      5259.0  Rx         0001  8  05 01 02 00 25 8F D2 23 
   736)      5259.1  Rx         0001  8  05 01 C0 8B 5C 1B 06 FB 
   737)      5259.1  Rx         0001  8  05 01 40 E0 E0 0C DC 0C 
   738)      5259.2  Rx         0001  8  05 01 A8 BB 0D 02 E6 FB 
   739)      5259.3  Rx         0001  8  05 01 FF FF DC 02 B8 BD 
   740)      5261.0  Rx         0001  2  02 01 
   741)      5261.6  Rx         0002  6  02 01 00 42 00 00 
   742)      5262.7  Rx         0001  8  05 01 80 74 8D D5 6E B8 
   743)      5262.7  Rx         0001  8  05 01 F2 FB 70 FF FC FE 
   744)      5262.8  Rx         0001  8  05 01 FC FD FC FC FC FB 
   745)      5262.8  Rx         0001  8  05 01 FC FA FC F9 FC F8 
   746)      5262.8  Rx         0001  8  05 01 FC F7 FC F6 FC F5 
   747)      5262.8  Rx         0001  8  05 01 FC F4 FC F3 FC F2 
   748)      5262.9  Rx         0001  8  05 01 FC F0 FC 2F FC 2E 
   749)      5263.0  Rx         0001  8  05 01 FC EF FC 07 FC 06 
   750)      5263.0  Rx         0001  8  05 01 FB 88 EC 06 EC 07 
   751)      5263.0  Rx         0001  8  05 01 EC EF EC 2E EC 2F 
   752)      5263.1  Rx         0001  8  05 01 EC F0 EC F2 EC F3 
   753)      5264.9  Rx         0001  2  02 01 
   754)      5265.9  Rx         0002  6  02 01 00 42 00 00 
   755)      5267.0  Rx         0001  8  05 01 EC F4 EC F5 EC F6 
   756)      5267.0  Rx         0001  8  05 01 EC F7 EC F8 EC F9 
   757)      5267.1  Rx         0001  8  05 01 EC FA EC FB EC FC 
   758)      5267.1  Rx         0001  8  05 01 EC FD EC FE E6 FB 
   759)      5267.1  Rx         0001  8  05 01 07 FF D7 40 03 00 
   760)      5267.1  Rx         0001  8  05 01 F6 FB A2 21 E1 19 
   761)      5267.2  Rx         0001  8  05 01 D7 40 02 00 43 F9 
   762)      5267.2  Rx         0001  8  05 01 D3 23 EA 30 B2 10 
   763)      5267.2  Rx         0001  8  05 01 E6 F8 E4 A3 E6 F9 
   764)      5267.3  Rx         0001  8  05 01 00 00 E6 FA 80 A3 
   765)      5267.3  Rx         0001  8  05 01 E6 F6 00 00 E6 FB 
   766)      5269.0  Rx         0001  2  02 01 
   767)      5270.2  Rx         0002  6  02 01 00 42 00 00 
   768)      5271.3  Rx         0001  8  05 01 ED A3 E6 FC 00 00 
   769)      5271.3  Rx         0001  8  05 01 DC 0C A9 9B D7 40 
   770)      5271.3  Rx         0001  8  05 01 02 00 43 F9 EC 23 
   771)      5271.4  Rx         0001  8  05 01 EA 90 1A 10 C0 9B 
   772)      5271.4  Rx         0001  8  05 01 F0 C8 F0 D9 00 CB 
   773)      5271.4  Rx         0001  8  05 01 18 D0 D7 40 02 00 
   774)      5271.4  Rx         0001  8  05 01 F3 F4 F2 23 DC 0D 
   775)      5271.5  Rx         0001  8  05 01 A9 9C C0 9B E0 0C 
   776)      5271.5  Rx         0001  8  05 01 A3 BC 62 00 C3 77 
   777)      5271.5  Rx         0001  8  05 01 20 00 C3 00 08 00 
   778)      5271.6  Rx         0001  8  05 01 E6 FB D4 A3 E6 FC 
   779)      5273.0  Rx         0001  2  02 01 
   780)      5274.5  Rx         0002  6  02 01 00 42 00 00 
   781)      5275.6  Rx         0001  8  05 01 00 00 F0 D7 F0 E0 
   782)      5275.6  Rx         0001  8  05 01 00 DB 10 EC D7 40 
   783)      5275.6  Rx         0001  8  05 01 02 00 F2 F4 F0 23 
   784)      5275.7  Rx         0001  8  05 01 DC 0E A8 3D DA C2 
   785)      5275.7  Rx         0001  8  05 01 CA A0 F0 BA F0 C6 
   786)      5275.7  Rx         0001  8  05 01 00 B7 10 C0 E6 FD 
   787)      5275.7  Rx         0001  8  05 01 00 00 DC 0C A8 BB 
   788)      5275.8  Rx         0001  8  05 01 D7 40 03 00 F6 FB 
   789)      5275.8  Rx         0001  8  05 01 E8 21 D7 40 02 00 
   790)      5275.8  Rx         0001  8  05 01 C2 FB ED 23 28 B1 
   791)      5275.9  Rx         0001  8  05 01 F0 CB BC FC 00 8B 
   792)      5277.0  Rx         0001  2  02 01 
   793)      5278.8  Rx         0002  6  02 01 00 42 00 00 
   794)      5279.9  Rx         0001  8  05 01 10 9C E0 0C DC 09 
   795)      5279.9  Rx         0001  8  05 01 A9 98 C0 9B A3 BC 
   796)      5279.9  Rx         0001  8  05 01 22 00 A3 00 82 03 
   797)      5280.0  Rx         0001  8  05 01 C3 EE 20 00 C3 55 
   798)      5280.0  Rx         0001  8  05 01 08 00 E6 FB 7E A3 
   799)      5280.0  Rx         0001  8  05 01 00 EB 10 5D 06 FE 
   800)      5280.0  Rx         0001  8  05 01 12 00 18 50 C0 9B 
   801)      5280.1  Rx         0001  8  05 01 00 BB 18 C0 00 AB 
   802)      5280.1  Rx         0001  8  05 01 10 6C E0 44 E0 13 
   803)      5280.1  Rx         0001  8  05 01 C0 8B 4C 3B F0 2A 
   804)      5280.2  Rx         0001  8  05 01 F0 C3 DC 06 68 CA 
   805)      5282.0  Rx         0001  2  02 01 
   806)      5283.1  Rx         0002  6  02 01 00 42 00 00 
   807)      5284.2  Rx         0001  8  05 01 40 C3 3D 20 C0 8B 
   808)      5284.2  Rx         0001  8  05 01 28 B4 E0 0C 00 BB 
   809)      5284.2  Rx         0001  8  05 01 18 C0 F0 DE F0 25 
   810)      5284.3  Rx         0001  8  05 01 00 DB 10 2C D7 40 
   811)      5284.3  Rx         0001  8  05 01 03 00 F2 FB 80 21 
   812)      5284.3  Rx         0001  8  05 01 60 B3 40 B3 3D 0C 
   813)      5284.3  Rx         0001  8  05 01 D7 40 02 00 25 8F 
   814)      5284.4  Rx         0001  8  05 01 D2 23 C0 8B 5C 1B 
   815)      5284.4  Rx         0001  8  05 01 06 FB 40 E1 E0 0C 
   816)      5284.4  Rx         0001  8  05 01 DC 0C A8 BB 0D 02 
   817)      5284.5  Rx         0001  8  05 01 E6 FB FF FF DC 02 
   818)      5286.1  Rx         0001  2  02 01 
   819)      5287.4  Rx         0002  6  02 01 00 42 00 00 
   820)      5288.5  Rx         0001  8  05 01 B8 BD 80 74 8D D5 
   821)      5288.5  Rx         0001  8  05 01 D7 40 02 00 25 8F 
   822)      5288.5  Rx         0001  8  05 01 ED 23 6F BC E6 FB 
   823)      5288.6  Rx         0001  8  05 01 00 02 D7 40 03 00 
   824)      5288.6  Rx         0001  8  05 01 74 FB EC 21 0D 4F 
   825)      5288.6  Rx         0001  8  05 01 C0 9B 28 B1 F0 CB 
   826)      5288.7  Rx         0001  8  05 01 BC FC 00 8B 10 9C 
   827)      5288.7  Rx         0001  8  05 01 E0 0C DC 09 A9 98 
   828)      5288.7  Rx         0001  8  05 01 C0 9B A3 BC 22 00 
   829)      5288.7  Rx         0001  8  05 01 A3 00 82 03 C3 EE 
   830)      5288.8  Rx         0001  8  05 01 20 00 C3 55 08 00 
   831)      5289.9  Rx         0001  2  02 01 
   832)      5291.7  Rx         0002  6  02 01 00 42 00 00 
   833)      5292.8  Rx         0001  8  05 01 E6 FB 7E A3 E6 FD 
   834)      5292.8  Rx         0001  8  05 01 00 00 00 EB 10 5D 
   835)      5292.8  Rx         0001  8  05 01 06 FE 12 00 18 50 
   836)      5292.9  Rx         0001  8  05 01 C0 9B 00 BB 18 C0 
   837)      5293.0  Rx         0001  8  05 01 00 AB 10 6C E0 44 
   838)      5293.0  Rx         0001  8  05 01 E0 13 C0 8B 4C 3B 
   839)      5293.1  Rx         0001  8  05 01 F0 2A F0 C3 DC 06 
   840)      5293.1  Rx         0001  8  05 01 68 CA 40 C3 3D 20 
   841)      5293.1  Rx         0001  8  05 01 C0 8B 28 B4 E0 0C 
   842)      5293.2  Rx         0001  8  05 01 00 BB 18 C0 F0 DE 
   843)      5293.2  Rx         0001  8  05 01 F0 25 00 DB 10 2C 
   844)      5295.0  Rx         0001  2  02 01 
   845)      5296.0  Rx         0002  6  02 01 00 42 00 00 
   846)      5297.0  Rx         0001  8  05 01 D7 40 03 00 F2 FB 
   847)      5297.1  Rx         0001  8  05 01 80 21 60 B3 40 B3 
   848)      5297.1  Rx         0001  8  05 01 3D 0C D7 40 02 00 
   849)      5297.1  Rx         0001  8  05 01 25 8F D2 23 C0 8B 
   850)      5297.1  Rx         0001  8  05 01 5C 1B 06 FB 40 E1 
   851)      5297.2  Rx         0001  8  05 01 E0 0C DC 0C A8 BB 
   852)      5297.2  Rx         0001  8  05 01 0D 02 E6 FB FF FF 
   853)      5297.2  Rx         0001  8  05 01 DC 02 B8 BD 80 74 
   854)      5297.3  Rx         0001  8  05 01 8D D5 6E BC F2 FB 
   855)      5297.3  Rx         0001  8  05 01 78 FF FC FE FC FD 
   856)      5297.3  Rx         0001  8  05 01 FC FC FC FB FC FA 
   857)      5298.9  Rx         0001  2  02 01 
   858)      5300.2  Rx         0002  6  02 01 00 42 00 00 
   859)      5301.3  Rx         0001  8  05 01 FC F9 FC F8 FC F7 
   860)      5301.4  Rx         0001  8  05 01 FC F6 FC F5 FC F4 
   861)      5301.4  Rx         0001  8  05 01 FC F3 FC F2 FC F0 
   862)      5301.4  Rx         0001  8  05 01 FC 2F FC 2E FC EF 
   863)      5301.4  Rx         0001  8  05 01 FC 07 FC 06 FB 88 
   864)      5301.5  Rx         0001  8  05 01 DA C2 F2 A3 26 FF 
   865)      5301.5  Rx         0001  8  05 01 18 00 F0 82 F0 93 
   866)      5301.5  Rx         0001  8  05 01 E4 8F 16 00 F0 A5 
   867)      5301.6  Rx         0001  8  05 01 C4 BF 14 00 C4 CF 
   868)      5301.6  Rx         0001  8  05 01 12 00 C4 DF 10 00 
   869)      5301.6  Rx         0001  8  05 01 E1 0C C4 EF 0E 00 
   870)      5303.2  Rx         0001  2  02 01 
   871)      5304.6  Rx         0002  6  02 01 00 42 00 00 
   872)      5305.7  Rx         0001  8  05 01 D4 BF 26 00 C4 BF 
   873)      5305.8  Rx         0001  8  05 01 0C 00 D4 0F 28 00 
   874)      5305.8  Rx         0001  8  05 01 E6 F1 C2 00 E6 F2 
   875)      5306.8  Rx         0001  8  05 01 D4 C4 D0 83 E0 64 
   876)      5309.9  Rx         0001  8  05 01 DA C2 4E 9C 9C 02 
   877)      5310.0  Rx         0001  8  05 01 D4 BF 12 00 7D 0D 
   878)      5310.0  Rx         0001  8  05 01 E7 FC 2D 00 D4 BF 
   879)      5310.1  Rx         0001  8  05 01 14 00 D4 CF 12 00 
   880)      5310.2  Rx         0001  8  05 01 81 B0 18 C0 C4 BF 
   881)      5310.3  Rx         0001  8  05 01 14 00 81 C0 C4 CF 
   882)      5310.3  Rx         0001  8  05 01 12 00 DA C2 5A A8 
   883)      5312.0  Rx         0001  2  02 01 
   884)      5312.5  Rx         0002  6  02 01 00 42 00 00 
   885)      5313.8  Rx         0001  8  05 01 D4 4F 14 00 D4 5F 
   886)      5313.8  Rx         0001  8  05 01 12 00 E0 AB DA C2 
   887)      5313.9  Rx         0001  8  05 01 62 89 48 90 3D 07 
   888)      5314.1  Rx         0001  8  05 01 D4 BF 12 00 D4 CF 
   889)      5314.1  Rx         0001  8  05 01 14 00 70 BC EA 20 
   890)      5314.2  Rx         0001  8  05 01 0A 13 DA C2 5A A8 
   891)      5314.3  Rx         0001  8  05 01 DA C2 46 A3 F1 D4 
   892)      5314.3  Rx         0001  8  05 01 49 C0 3D 16 F4 9F 
   893)      5314.4  Rx         0001  8  05 01 16 00 47 F9 75 00 
   894)      5314.5  Rx         0001  8  05 01 2D 09 F0 BA 66 FB 
   895)      5314.6  Rx         0001  8  05 01 18 00 46 FB 08 00 
   896)      5316.1  Rx         0001  2  02 01 
   897)      5316.9  Rx         0002  6  02 01 00 42 00 00 
   898)      5318.1  Rx         0001  8  05 01 3D 03 E7 FC 2B 00 
   899)      5318.2  Rx         0001  8  05 01 0D 08 F0 BA 66 FB 
   900)      5318.2  Rx         0001  8  05 01 18 00 46 FB 10 00 
   901)      5318.2  Rx         0001  8  05 01 3D 02 E7 FC 20 00 
   902)      5318.3  Rx         0001  8  05 01 49 C0 2D 09 E0 0B 
   903)      5318.3  Rx         0001  8  05 01 40 B8 38 80 F0 BA 
   904)      5318.3  Rx         0001  8  05 01 68 B3 2D 03 DA C2 
   905)      5318.4  Rx         0001  8  05 01 E0 A7 E1 0C 8A FA 
   906)      5318.4  Rx         0001  8  05 01 12 00 E0 07 4A FA 
   907)      5318.4  Rx         0001  8  05 01 F7 10 5C 47 06 F7 
   908)      5318.5  Rx         0001  8  05 01 20 00 0D 06 DA C2 
   909)      5319.9  Rx         0001  2  02 01 
   910)      5321.3  Rx         0002  6  02 01 00 42 00 00 
   911)      5322.4  Rx         0001  8  05 01 9A A7 F1 8E DA C2 
   912)      5322.4  Rx         0001  8  05 01 EA A7 28 81 40 89 
   913)      5322.5  Rx         0001  8  05 01 BD 03 C0 DB 40 8B 
   914)      5322.5  Rx         0001  8  05 01 AD F5 49 C0 2D 05 
   915)      5322.5  Rx         0001  8  05 01 DA C2 E0 A7 0D 02 
   916)      5322.6  Rx         0001  8  05 01 DA C2 7A A8 C0 DB 
   917)      5322.6  Rx         0001  8  05 01 40 9B AD FB 0D 77 
   918)      5322.6  Rx         0001  8  05 01 E1 03 F4 9F 16 00 
   919)      5322.7  Rx         0001  8  05 01 47 F9 6F 00 2D 01 
   920)      5322.7  Rx         0001  8  05 01 E1 13 DA C2 5A A8 
   921)      5322.7  Rx         0001  8  05 01 F0 62 F0 73 C0 3B 
   922)      5324.1  Rx         0001  2  02 01 
   923)      5325.7  Rx         0002  6  02 01 00 42 00 00 
   924)      5326.7  Rx         0001  8  05 01 5C 3B 06 FB 08 00 
   925)      5326.7  Rx         0001  8  05 01 D4 4F 14 00 D4 5F 
   926)      5326.8  Rx         0001  8  05 01 12 00 DA C2 62 89 
   927)      5326.8  Rx         0001  8  05 01 F4 9F 16 00 47 F9 
   928)      5326.8  Rx         0001  8  05 01 78 00 3D 14 DC 07 
   929)      5326.8  Rx         0001  8  05 01 A9 96 2D 11 DC 07 
   930)      5326.9  Rx         0001  8  05 01 A9 86 F1 98 27 F9 
   931)      5326.9  Rx         0001  8  05 01 41 00 47 F9 19 00 
   932)      5326.9  Rx         0001  8  05 01 ED 04 07 F8 20 00 
   933)      5327.0  Rx         0001  8  05 01 DC 07 B9 86 08 61 
   934)      5327.0  Rx         0001  8  05 01 18 70 DC 07 A9 96 
   935)      5329.0  Rx         0001  2  02 01 
   936)      5329.9  Rx         0002  6  02 01 00 42 00 00 
   937)      5330.9  Rx         0001  8  05 01 3D EF DA C2 5A A8 
   938)      5331.0  Rx         0001  8  05 01 DA C2 46 A3 F1 F4 
   939)      5331.0  Rx         0001  8  05 01 D4 BF 12 00 D4 CF 
   940)      5331.0  Rx         0001  8  05 01 14 00 70 BC 3D 08 
   941)      5331.1  Rx         0001  8  05 01 48 90 3D 05 49 30 
   942)      5331.1  Rx         0001  8  05 01 3D 4E 9A FA 4C 20 
   943)      5331.1  Rx         0001  8  05 01 E0 19 2E FA 9A FA 
   944)      5331.1  Rx         0001  8  05 01 11 20 9A FA 05 10 
   945)      5331.2  Rx         0001  8  05 01 49 30 2D 02 DA C2 
   946)      5331.2  Rx         0001  8  05 01 62 A4 2E FA F4 9F 
   947)      5331.2  Rx         0001  8  05 01 16 00 47 F9 6F 00 
   948)      5333.0  Rx         0001  2  02 01 
   949)      5334.1  Rx         0002  6  02 01 00 42 00 00 
   950)      5335.2  Rx         0001  8  05 01 3D 05 C0 FB 40 9B 
   951)      5335.3  Rx         0001  8  05 01 AD 02 C0 F9 08 91 
   952)      5335.3  Rx         0001  8  05 01 9A FA 04 20 49 30 
   953)      5335.3  Rx         0001  8  05 01 2D 02 09 F2 08 92 
   954)      5335.4  Rx         0001  8  05 01 8A FA 0F 00 E0 06 
   955)      5335.4  Rx         0001  8  05 01 4A FA F6 10 5C 46 
   956)      5335.4  Rx         0001  8  05 01 06 F6 20 00 0D 03 
   957)      5335.4  Rx         0001  8  05 01 DA C2 E0 A7 28 81 
   958)      5335.5  Rx         0001  8  05 01 40 89 BD 03 C0 FB 
   959)      5335.5  Rx         0001  8  05 01 40 8B AD F8 9A FA 
   960)      5335.5  Rx         0001  8  05 01 07 20 49 30 2D 05 
   961)      5337.0  Rx         0001  2  02 01 
   962)      5338.5  Rx         0002  6  02 01 00 42 00 00 
   963)      5339.6  Rx         0001  8  05 01 DA C2 62 A4 0D 02 
   964)      5339.6  Rx         0001  8  05 01 DA C2 7A A8 C0 FB 
   965)      5339.6  Rx         0001  8  05 01 40 9B AD FB DA C2 
   966)      5339.7  Rx         0001  8  05 01 5A A8 F0 B2 F0 C3 
   967)      5339.7  Rx         0001  8  05 01 F0 2A 7E F2 88 0F 
   968)      5339.7  Rx         0001  8  05 01 D4 DF 0E 00 88 DF 
   969)      5339.8  Rx         0001  8  05 01 E6 F4 FF 7F F0 38 
   970)      5339.8  Rx         0001  8  05 01 D4 DF 14 00 D4 EF 
   971)      5339.8  Rx         0001  8  05 01 12 00 DA C2 E6 80 
   972)      5339.9  Rx         0001  8  05 01 08 F4 06 FF 18 00 
   973)      5339.9  Rx         0001  8  05 01 FA C2 B2 A3 28 F2 
   974)      5342.0  Rx         0001  2  02 01 
   975)      5342.7  Rx         0002  6  02 01 00 42 00 00 
   976)      5343.8  Rx         0001  8  05 01 B3 FF 00 03 B3 FF 
   977)      5343.9  Rx         0001  8  05 01 20 03 B3 FF 08 01 
   978)      5343.9  Rx         0001  8  05 01 88 0F 88 1F 88 6F 
   979)      5343.9  Rx         0001  8  05 01 88 7F 88 8F 88 9F 
   980)      5344.0  Rx         0001  8  05 01 88 AF 26 FF 0C 00 
   981)      5344.0  Rx         0001  8  05 01 F1 C6 E1 76 E4 4F 
   982)      5344.0  Rx         0001  8  05 01 08 00 E4 5F 0B 00 
   983)      5344.1  Rx         0001  8  05 01 C4 BF 06 00 C4 CF 
   984)      5344.1  Rx         0001  8  05 01 04 00 C4 DF 02 00 
   985)      5344.1  Rx         0001  8  05 01 E4 AF 09 00 E4 BF 
   986)      5344.2  Rx         0001  8  05 01 0A 00 F0 84 F0 9E 
   987)      5346.0  Rx         0001  2  02 01 
   988)      5347.1  Rx         0002  6  02 01 00 42 00 00 
   989)      5348.1  Rx         0001  8  05 01 F1 D7 DA C2 62 85 
   990)      5348.2  Rx         0001  8  05 01 F1 4C F1 5D DA C2 
   991)      5348.2  Rx         0001  8  05 01 E2 A2 E6 FD FF FF 
   992)      5348.2  Rx         0001  8  05 01 1B 8D A4 0F 1C FF 
   993)      5348.3  Rx         0001  8  05 01 E1 1E E1 1F E6 FB 
   994)      5348.3  Rx         0001  8  05 01 80 96 E6 FC 98 4C 
   995)      5348.3  Rx         0001  8  05 01 F2 F3 0C FE F2 F2 
   996)      5348.3  Rx         0001  8  05 01 0E FE DA C2 16 8E 
   997)      5348.4  Rx         0001  8  05 01 F0 42 F0 53 F0 2B 
   998)      5348.4  Rx         0001  8  05 01 F0 3C DA C2 AE 6D 
   999)      5348.4  Rx         0001  8  05 01 F0 B2 F0 C3 0D 24 
  1000)      5350.0  Rx         0001  2  02 01 
  1001)      5351.3  Rx         0002  6  02 01 00 42 00 00 
  1002)      5352.4  Rx         0001  8  05 01 F1 4F DA C2 40 9E 
  1003)      5352.4  Rx         0001  8  05 01 F0 4B F0 5C DA C2 
  1004)      5352.4  Rx         0001  8  05 01 7E 93 F1 44 3D 19 
  1005)      5352.5  Rx         0001  8  05 01 D4 DF 02 00 E6 F2 
  1006)      5352.5  Rx         0001  8  05 01 00 B4 DC 09 B9 ED 
  1007)      5352.5  Rx         0001  8  05 01 C0 FD 1B D8 D4 DF 
  1008)      5352.5  Rx         0001  8  05 01 06 00 E6 F3 C4 04 
  1009)      5352.6  Rx         0001  8  05 01 F2 F4 0E FE F2 F5 
  1010)      5352.6  Rx         0001  8  05 01 0C FE DA C2 F2 82 
  1011)      5352.6  Rx         0001  8  05 01 81 20 D4 EF 04 00 
  1012)      5352.7  Rx         0001  8  05 01 DC 0E B8 2D E1 19 
  1013)      5354.1  Rx         0001  2  02 01 
  1014)      5355.6  Rx         0002  6  02 01 00 42 00 00 
  1015)      5356.9  Rx         0001  8  05 01 B9 9F 01 FF 09 E1 
  1016)      5357.0  Rx         0001  8  05 01 47 FE 08 00 ED 02 
  1017)      5357.2  Rx         0001  8  05 01 A9 9F 2D D7 F4 9F 
  1018)      5357.4  Rx         0001  8  05 01 08 00 C0 9B E0 02 
  1019)      5357.4  Rx         0001  8  05 01 A3 B2 62 00 C3 55 
  1020)      5357.5  Rx         0001  8  05 01 20 00 C3 33 08 00 
  1021)      5357.5  Rx         0001  8  05 01 E6 FB 60 FE E0 0C 
  1022)      5357.5  Rx         0001  8  05 01 D4 DF 06 00 00 B5 
  1023)      5357.6  Rx         0001  8  05 01 10 C3 D4 EF 04 00 
  1024)      5357.6  Rx         0001  8  05 01 DC 0E A8 DD DC 0C 
  1025)      5357.6  Rx         0001  8  05 01 B8 DB F4 9F 09 00 
  1026)      5359.1  Rx         0001  2  02 01 
  1027)      5360.2  Rx         0002  6  02 01 00 42 00 00 
  1028)      5361.2  Rx         0001  8  05 01 C0 9B 06 FB 17 00 
  1029)      5361.2  Rx         0001  8  05 01 00 BB 18 20 00 BB 
  1030)      5361.2  Rx         0001  8  05 01 10 22 E6 FC 88 D8 
  1031)      5361.3  Rx         0001  8  05 01 E6 FD C2 00 00 BC 
  1032)      5361.3  Rx         0001  8  05 01 10 2D F0 CB F0 D2 
  1033)      5361.3  Rx         0001  8  05 01 08 C1 18 D0 DC 02 
  1034)      5361.3  Rx         0001  8  05 01 A9 8B DC 0D A9 9C 
  1035)      5361.4  Rx         0001  8  05 01 E6 FC C0 F1 E0 0D 
  1036)      5361.4  Rx         0001  8  05 01 00 C5 10 D3 67 F8 
  1037)      5361.4  Rx         0001  8  05 01 0F 00 C0 8B F1 89 
  1038)      5361.5  Rx         0001  8  05 01 69 83 5C 2B C0 8E 
  1039)      5363.0  Rx         0001  2  02 01 
  1040)      5364.4  Rx         0002  6  02 01 00 42 00 00 
  1041)      5366.0  Rx         0001  8  05 01 69 94 70 BE C0 9E 
  1042)      5366.2  Rx         0001  8  05 01 5C 6E 70 BE DC 0D 
  1043)      5369.7  Rx         0001  8  05 01 B8 BC F4 9F 09 00 
  1044)      5373.4  Rx         0001  8  05 01 C0 9B E0 6C 1B BC 
  1045)      5373.5  Rx         0001  8  05 01 E6 FD 8A A1 F2 FB 
  1046)      5373.5  Rx         0001  8  05 01 0C FE F2 FC 0E FE 
  1047)      5373.6  Rx         0001  8  05 01 E6 FE 00 00 00 CD 
  1048)      5373.7  Rx         0001  8  05 01 10 BE F0 DC F0 EB 
  1049)      5373.8  Rx         0001  8  05 01 08 D4 18 E0 F4 9F 
  1050)      5373.9  Rx         0001  8  05 01 0A 00 DC 0E B9 9D 
  1051)      5374.0  Rx         0001  8  05 01 F0 DC F0 EB 08 D5 
  1052)      5376.2  Rx         0001  2  02 01 
  1053)      5376.7  Rx         0002  6  02 01 00 42 00 00 
  1054)      5377.8  Rx         0001  8  05 01 18 E0 08 C2 18 B0 
  1055)      5377.9  Rx         0001  8  05 01 F4 9F 20 00 DC 0E 
  1056)      5378.1  Rx         0001  8  05 01 B9 9D E6 FD FF FF 
  1057)      5378.2  Rx         0001  8  05 01 DC 0B B8 DC F4 9F 
  1058)      5378.2  Rx         0001  8  05 01 0B 00 49 92 3D 17 
  1059)      5378.3  Rx         0001  8  05 01 66 90 F8 FF D4 BF 
  1060)      5378.4  Rx         0001  8  05 01 02 00 DC 09 A9 9B 
  1061)      5378.4  Rx         0001  8  05 01 C0 9B 28 B1 68 B7 
  1062)      5378.4  Rx         0001  8  05 01 74 FB 20 FF F6 8F 
  1063)      5378.5  Rx         0001  8  05 01 50 F0 D4 BF 06 00 
  1064)      5378.5  Rx         0001  8  05 01 D4 CF 04 00 DC 0C 
  1065)      5380.1  Rx         0001  2  02 01 
  1066)      5381.1  Rx         0002  6  02 01 00 42 00 00 
  1067)      5382.2  Rx         0001  8  05 01 A8 BB F6 FB 54 F0 
  1068)      5382.2  Rx         0001  8  05 01 6F 90 0D 17 66 90 
  1069)      5382.2  Rx         0001  8  05 01 FF F8 D4 BF 02 00 
  1070)      5382.3  Rx         0001  8  05 01 DC 09 A9 9B C0 9B 
  1071)      5382.3  Rx         0001  8  05 01 28 B1 68 B7 5C 8B 
  1072)      5382.3  Rx         0001  8  05 01 74 FB 20 FF F6 8F 
  1073)      5382.4  Rx         0001  8  05 01 52 F0 D4 BF 06 00 
  1074)      5382.4  Rx         0001  8  05 01 D4 CF 04 00 DC 0C 
  1075)      5382.4  Rx         0001  8  05 01 A8 BB F6 FB 56 F0 
  1076)      5382.5  Rx         0001  8  05 01 EF 90 06 FF 0C 00 
  1077)      5382.5  Rx         0001  8  05 01 98 AF 98 9F 98 8F 
  1078)      5384.0  Rx         0001  2  02 01 
  1079)      5385.4  Rx         0002  6  02 01 00 42 00 00 
  1080)      5386.5  Rx         0001  8  05 01 98 7F 98 6F 98 1F 
  1081)      5386.5  Rx         0001  8  05 01 98 0F 94 0F 5E FE 
  1082)      5386.6  Rx         0001  8  05 01 08 F2 94 0F 5C FE 
  1083)      5386.6  Rx         0001  8  05 01 08 F2 94 0F DE FF 
  1084)      5386.6  Rx         0001  8  05 01 08 F2 DB 00 88 0F 
  1085)      5386.7  Rx         0001  8  05 01 88 1F 88 6F 88 7F 
  1086)      5386.7  Rx         0001  8  05 01 88 8F 88 9F 88 AF 
  1087)      5386.7  Rx         0001  8  05 01 26 FF 08 00 F0 D3 
  1088)      5386.7  Rx         0001  8  05 01 F1 D8 E4 5F 06 00 
  1089)      5386.8  Rx         0001  8  05 01 E4 9F 02 00 F1 BA 
  1090)      5386.8  Rx         0001  8  05 01 E0 0B C4 BF 04 00 
  1091)      5388.2  Rx         0001  2  02 01 
  1092)      5389.7  Rx         0002  6  02 01 00 42 00 00 
  1093)      5390.8  Rx         0001  8  05 01 49 47 ED 09 49 D1 
  1094)      5390.8  Rx         0001  8  05 01 3D 0B 47 F9 2E 00 
  1095)      5390.8  Rx         0001  8  05 01 8D 04 47 F9 31 00 
  1096)      5390.9  Rx         0001  8  05 01 EA F0 84 15 E6 FB 
  1097)      5390.9  Rx         0001  8  05 01 22 00 EA 00 52 17 
  1098)      5390.9  Rx         0001  8  05 01 46 FD 32 00 8D 03 
  1099)      5390.9  Rx         0001  8  05 01 46 FD E8 03 FD 04 
  1100)      5391.0  Rx         0001  8  05 01 E6 FB 1F 00 EA 00 
  1101)      5391.0  Rx         0001  8  05 01 52 17 C0 4B E0 6C 
  1102)      5391.0  Rx         0001  8  05 01 1B BC E6 FE 14 A5 
  1103)      5391.1  Rx         0001  8  05 01 F2 FB 0C FE F2 F1 
  1104)      5393.1  Rx         0001  2  02 01 
  1105)      5394.0  Rx         0002  6  02 01 00 42 00 00 
  1106)      5395.0  Rx         0001  8  05 01 0E FE E6 F4 00 00 
  1107)      5395.0  Rx         0001  8  05 01 00 1E 10 B4 B8 BF 
  1108)      5395.1  Rx         0001  8  05 01 DC 0B A9 A1 EA 31 
  1109)      5395.1  Rx         0001  8  05 01 4E 17 49 D1 3D 0E 
  1110)      5395.1  Rx         0001  8  05 01 F4 AF 02 00 C0 AB 
  1111)      5395.2  Rx         0001  8  05 01 1B BC F2 FB 0C FE 
  1112)      5395.2  Rx         0001  8  05 01 F2 FC 0E FE 00 CE 
  1113)      5395.2  Rx         0001  8  05 01 10 B4 DC 0B A9 9C 
  1114)      5395.3  Rx         0001  8  05 01 EA 30 4E 17 F0 B1 
  1115)      5395.3  Rx         0001  8  05 01 A8 CF 08 B2 18 C0 
  1116)      5395.3  Rx         0001  8  05 01 E0 09 DC 0C A8 EB 
  1117)      5397.1  Rx         0001  2  02 01 
  1118)      5398.2  Rx         0002  6  02 01 00 42 00 00 
  1119)      5399.3  Rx         0001  8  05 01 08 B2 18 C0 DC 0C 
  1120)      5399.4  Rx         0001  8  05 01 A8 CB F0 BE F0 4C 
  1121)      5399.4  Rx         0001  8  05 01 DC 04 A8 2B 08 B2 
  1122)      5399.5  Rx         0001  8  05 01 18 40 08 E4 18 C0 
  1123)      5399.5  Rx         0001  8  05 01 DC 04 A8 3B F0 72 
  1124)      5399.5  Rx         0001  8  05 01 F0 03 08 74 18 00 
  1125)      5399.6  Rx         0001  8  05 01 DC 0C A8 BE 08 E2 
  1126)      5399.6  Rx         0001  8  05 01 18 C0 DC 00 A9 97 
  1127)      5399.6  Rx         0001  8  05 01 C0 98 DC 0C A8 CE 
  1128)      5399.7  Rx         0001  8  05 01 00 88 18 90 E6 FE 
  1129)      5399.7  Rx         0001  8  05 01 3A A2 E6 F4 00 00 
  1130)      5401.0  Rx         0001  2  02 01 
  1131)      5402.5  Rx         0002  6  02 01 00 42 00 00 
  1132)      5403.6  Rx         0001  8  05 01 00 8E 10 94 E0 0E 
  1133)      5403.6  Rx         0001  8  05 01 DC 09 B8 E8 F0 4D 
  1134)      5403.7  Rx         0001  8  05 01 F4 AF 06 00 DA C1 
  1135)      5403.7  Rx         0001  8  05 01 80 00 49 D1 EA 30 
  1136)      5403.7  Rx         0001  8  05 01 44 17 F4 9F 02 00 
  1137)      5403.8  Rx         0001  8  05 01 C0 9B E0 6C 1B BC 
  1138)      5403.8  Rx         0001  8  05 01 E6 FD 14 A5 F2 FB 
  1139)      5403.8  Rx         0001  8  05 01 0C FE F2 FC 0E FE 
  1140)      5403.8  Rx         0001  8  05 01 E6 FE 00 00 00 CD 
  1141)      5403.9  Rx         0001  8  05 01 10 BE 08 C2 18 B0 
  1142)      5403.9  Rx         0001  8  05 01 D7 00 C2 00 F2 F4 
  1143)      5405.1  Rx         0001  2  02 01 
  1144)      5406.8  Rx         0002  6  02 01 00 42 00 00 
  1145)      5407.9  Rx         0001  8  05 01 7E D9 DC 0B A8 DC 
  1146)      5408.0  Rx         0001  8  05 01 08 C2 18 B0 D7 00 
  1147)      5408.1  Rx         0001  8  05 01 C2 00 F2 F5 80 D9 
  1148)      5408.1  Rx         0001  8  05 01 DC 0B A8 BC F0 CD 
  1149)      5408.1  Rx         0001  8  05 01 F0 EB 08 D4 18 B0 
  1150)      5408.2  Rx         0001  8  05 01 DC 0E A8 6C 08 C2 
  1151)      5408.2  Rx         0001  8  05 01 18 E0 DC 0B A8 9D 
  1152)      5408.2  Rx         0001  8  05 01 08 D2 18 B0 E7 F7 
  1153)      5408.3  Rx         0001  8  05 01 FE 00 E1 14 E1 15 
  1154)      5408.3  Rx         0001  8  05 01 E1 06 DC 0E A8 AC 
  1155)      5408.3  Rx         0001  8  05 01 DC 0B A8 8D DA C2 
  1156)      5410.0  Rx         0001  2  02 01 
  1157)      5411.1  Rx         0002  6  02 01 00 42 00 00 
  1158)      5412.1  Rx         0001  8  05 01 8C 6E DC 08 A9 49 
  1159)      5412.2  Rx         0001  8  05 01 08 91 18 80 E7 F5 
  1160)      5412.2  Rx         0001  8  05 01 FF 00 DC 08 A9 69 
  1161)      5412.2  Rx         0001  8  05 01 DA C2 1A 95 DC 0A 
  1162)      5412.3  Rx         0001  8  05 01 A9 46 08 61 18 A0 
  1163)      5412.3  Rx         0001  8  05 01 E1 05 DC 0A A9 66 
  1164)      5412.3  Rx         0001  8  05 01 E1 07 DA C2 C8 4D 
  1165)      5412.4  Rx         0001  8  05 01 D7 40 02 00 C2 FB 
  1166)      5412.4  Rx         0001  8  05 01 54 20 E0 0C E6 FD 
  1167)      5412.4  Rx         0001  8  05 01 55 A0 E6 FE 00 00 
  1168)      5412.5  Rx         0001  8  05 01 00 BD 10 CE F4 9F 
  1169)      5414.0  Rx         0001  2  02 01 
  1170)      5415.3  Rx         0002  6  02 01 00 42 00 00 
  1171)      5416.4  Rx         0001  8  05 01 02 00 DC 0C B9 9B 
  1172)      5416.5  Rx         0001  8  05 01 DC 00 A9 97 C0 9B 
  1173)      5416.5  Rx         0001  8  05 01 E0 0C E6 FD 0A A2 
  1174)      5416.5  Rx         0001  8  05 01 E6 FE 00 00 00 BD 
  1175)      5416.5  Rx         0001  8  05 01 10 CE D7 40 02 00 
  1176)      5416.6  Rx         0001  8  05 01 F3 F8 54 20 DC 0C 
  1177)      5416.6  Rx         0001  8  05 01 B9 8B F4 9F 02 00 
  1178)      5416.6  Rx         0001  8  05 01 C0 9B E0 6C 1B BC 
  1179)      5416.7  Rx         0001  8  05 01 D7 40 02 00 25 8F 
  1180)      5416.7  Rx         0001  8  05 01 54 20 F2 FB 0C FE 
  1181)      5416.7  Rx         0001  8  05 01 F2 FC 0E FE E6 FD 
  1182)      5418.1  Rx         0001  2  02 01 
  1183)      5419.7  Rx         0002  6  02 01 00 42 00 00 
  1184)      5420.8  Rx         0001  8  05 01 14 A5 E6 FE 00 00 
  1185)      5420.8  Rx         0001  8  05 01 00 CD 10 BE E1 49 
  1186)      5420.8  Rx         0001  8  05 01 DC 0B B9 9C E1 59 
  1187)      5420.9  Rx         0001  8  05 01 A8 BF DC 0B B9 91 
  1188)      5420.9  Rx         0001  8  05 01 0D 04 E6 FB 20 00 
  1189)      5421.0  Rx         0001  8  05 01 C4 BF 04 00 D4 2F 
  1190)      5421.0  Rx         0001  8  05 01 04 00 06 FF 08 00 
  1191)      5421.1  Rx         0001  8  05 01 98 AF 98 9F 98 8F 
  1192)      5421.1  Rx         0001  8  05 01 98 7F 98 6F 98 1F 
  1193)      5421.1  Rx         0001  8  05 01 98 0F DB 00 88 0F 
  1194)      5421.2  Rx         0001  8  05 01 88 1F 88 6F 88 7F 
  1195)      5423.1  Rx         0001  2  02 01 
  1196)      5424.0  Rx         0002  6  02 01 00 42 00 00 
  1197)      5425.1  Rx         0001  8  05 01 88 8F 88 9F 88 AF 
  1198)      5425.1  Rx         0001  8  05 01 26 FF 0C 00 F0 82 
  1199)      5425.2  Rx         0001  8  05 01 F0 93 E4 8F 08 00 
  1200)      5425.2  Rx         0001  8  05 01 E0 0B C4 BF 0A 00 
  1201)      5425.2  Rx         0001  8  05 01 48 81 38 30 8D 0E 
  1202)      5425.3  Rx         0001  8  05 01 F0 B9 46 F8 40 42 
  1203)      5425.3  Rx         0001  8  05 01 36 FB 0F 00 ED 08 
  1204)      5425.3  Rx         0001  8  05 01 F4 9F 08 00 49 91 
  1205)      5425.4  Rx         0001  8  05 01 8D 04 47 F9 10 00 
  1206)      5425.4  Rx         0001  8  05 01 EA F0 BC 17 E6 FB 
  1207)      5425.4  Rx         0001  8  05 01 1F 00 C4 BF 0A 00 
  1208)      5434.9  Rx         0001  2  02 01 
  1209)      5435.5  Rx         0002  6  02 01 00 42 00 00 
  1210)      5437.0  Rx         0001  8  05 01 EA 00 82 19 E1 09 
  1211)      5437.1  Rx         0001  8  05 01 D7 40 02 00 43 F9 
  1212)      5437.2  Rx         0001  8  05 01 D1 2E EA 30 82 19 
  1213)      5437.3  Rx         0001  8  05 01 DA C2 94 96 E0 3B 
  1214)      5437.4  Rx         0001  8  05 01 D7 40 81 00 F6 FB 
  1215)      5437.5  Rx         0001  8  05 01 0C 0A CC 00 CC 00 
  1216)      5437.6  Rx         0001  8  05 01 E0 1B D7 40 81 00 
  1217)      5437.7  Rx         0001  8  05 01 F6 FB 10 0A F0 28 
  1218)      5437.7  Rx         0001  8  05 01 F0 39 DA C2 16 8E 
  1219)      5437.8  Rx         0001  8  05 01 E6 F5 00 45 E0 04 
  1220)      5437.9  Rx         0001  8  05 01 DA C2 14 75 E6 F4 
  1221)      5439.1  Rx         0001  2  02 01 
  1222)      5440.1  Rx         0002  6  02 01 00 42 00 00 
  1223)      5441.3  Rx         0001  8  05 01 80 96 E6 F5 98 4C 
  1224)      5441.3  Rx         0001  8  05 01 DA C2 AE 6D C4 2F 
  1225)      5441.3  Rx         0001  8  05 01 02 00 B8 3F E6 F7 
  1226)      5441.4  Rx         0001  8  05 01 00 C0 E6 F9 7F 44 
  1227)      5441.4  Rx         0001  8  05 01 E0 0B C4 BF 04 00 
  1228)      5441.4  Rx         0001  8  05 01 C4 BF 06 00 E0 18 
  1229)      5441.4  Rx         0001  8  05 01 F0 28 DA C2 42 9E 
  1230)      5441.5  Rx         0001  8  05 01 D4 4F 02 00 A8 5F 
  1231)      5441.5  Rx         0001  8  05 01 DA C2 AE 6D DA C2 
  1232)      5441.5  Rx         0001  8  05 01 18 96 F0 A2 28 21 
  1233)      5441.6  Rx         0001  8  05 01 46 F2 00 04 EA 90 
  1234)      5443.1  Rx         0001  2  02 01 
  1235)      5444.5  Rx         0002  6  02 01 00 42 00 00 
  1236)      5445.5  Rx         0001  8  05 01 7E 18 F0 28 DA C2 
  1237)      5445.6  Rx         0001  8  05 01 42 9E F0 B2 F0 C3 
  1238)      5445.6  Rx         0001  8  05 01 F0 2A DA C2 42 9E 
  1239)      5445.6  Rx         0001  8  05 01 F0 42 F0 53 F0 2B 
  1240)      5445.7  Rx         0001  8  05 01 F0 3C DA C2 AE 6D 
  1241)      5445.7  Rx         0001  8  05 01 D4 4F 02 00 A8 5F 
  1242)      5445.7  Rx         0001  8  05 01 DA C2 5C 9D F0 B2 
  1243)      5445.8  Rx         0001  8  05 01 F0 47 F0 59 DA C2 
  1244)      5445.8  Rx         0001  8  05 01 36 93 F1 44 3D 06 
  1245)      5445.8  Rx         0001  8  05 01 F0 7B F0 93 C4 8F 
  1246)      5445.8  Rx         0001  8  05 01 06 00 C4 AF 04 00 
  1247)      5447.1  Rx         0001  2  02 01 
  1248)      5448.7  Rx         0002  6  02 01 00 42 00 00 
  1249)      5449.8  Rx         0001  8  05 01 86 F8 FF 03 8D CD 
  1250)      5449.8  Rx         0001  8  05 01 D4 BF 04 00 48 B0 
  1251)      5449.9  Rx         0001  8  05 01 FD 11 D7 40 81 00 
  1252)      5449.9  Rx         0001  8  05 01 F6 8E 1C 0A 28 B1 
  1253)      5449.9  Rx         0001  8  05 01 EF FB D7 40 81 00 
  1254)      5450.0  Rx         0001  8  05 01 F6 FB 1E 0A D4 BF 
  1255)      5450.0  Rx         0001  8  05 01 06 00 FF FB D7 40 
  1256)      5450.1  Rx         0001  8  05 01 81 00 F6 FB 04 0A 
  1257)      5450.1  Rx         0001  8  05 01 E7 F4 61 00 E1 B5 
  1258)      5450.1  Rx         0001  8  05 01 DA C2 E2 A2 E7 F4 
  1259)      5450.2  Rx         0001  8  05 01 62 00 E1 B5 DA C2 
  1260)      5452.1  Rx         0001  2  02 01 
  1261)      5453.0  Rx         0002  6  02 01 00 42 00 00 
  1262)      5454.1  Rx         0001  8  05 01 E2 A2 E7 F4 60 00 
  1263)      5454.1  Rx         0001  8  05 01 E1 05 DA C2 E2 A2 
  1264)      5454.2  Rx         0001  8  05 01 E6 FB 14 00 D7 40 
  1265)      5454.2  Rx         0001  8  05 01 81 00 F6 FB 20 0A 
  1266)      5454.2  Rx         0001  8  05 01 E6 FB 03 01 D7 40 
  1267)      5454.2  Rx         0001  8  05 01 81 00 F6 FB 30 0A 
  1268)      5454.3  Rx         0001  8  05 01 F4 9F 08 00 C0 9B 
  1269)      5454.3  Rx         0001  8  05 01 28 B1 5C 8B 76 FB 
  1270)      5454.3  Rx         0001  8  05 01 3F 00 D7 40 81 00 
  1271)      5454.4  Rx         0001  8  05 01 F6 FB 32 0A E6 FB 
  1272)      5454.4  Rx         0001  8  05 01 01 05 D7 40 81 00 
  1273)      5456.1  Rx         0001  2  02 01 
  1274)      5457.3  Rx         0002  6  02 01 00 42 00 00 
  1275)      5458.4  Rx         0001  8  05 01 F6 FB 3C 0A E6 FB 
  1276)      5458.4  Rx         0001  8  05 01 47 0F D7 50 81 00 
  1277)      5458.4  Rx         0001  8  05 01 F6 FB 40 0A F6 8E 
  1278)      5458.5  Rx         0001  8  05 01 10 0B E6 FB 00 05 
  1279)      5458.5  Rx         0001  8  05 01 D7 40 81 00 F6 FB 
  1280)      5458.5  Rx         0001  8  05 01 12 0B E6 FC 20 00 
  1281)      5458.6  Rx         0001  8  05 01 D7 70 81 00 F6 FC 
  1282)      5458.6  Rx         0001  8  05 01 14 0B F6 FB 16 0B 
  1283)      5458.6  Rx         0001  8  05 01 F6 8E 14 0A F6 8E 
  1284)      5458.7  Rx         0001  8  05 01 16 0A D7 40 0B 03 
  1285)      5458.7  Rx         0001  8  05 01 C2 FC 88 18 D7 40 
  1286)      5460.2  Rx         0001  2  02 01 
  1287)      5461.6  Rx         0002  6  02 01 00 42 00 00 
  1288)      5462.7  Rx         0001  8  05 01 0B 03 C2 FD 89 18 
  1289)      5462.7  Rx         0001  8  05 01 5C 2C 70 CD 6F FC 
  1290)      5462.7  Rx         0001  8  05 01 F6 FC 32 F1 D7 40 
  1291)      5462.8  Rx         0001  8  05 01 0B 03 C2 FC 8A 18 
  1292)      5462.8  Rx         0001  8  05 01 5C CC 70 CB D7 40 
  1293)      5462.8  Rx         0001  8  05 01 0B 03 C2 FB 8B 18 
  1294)      5462.9  Rx         0001  8  05 01 5C 1B 06 FB C0 FE 
  1295)      5462.9  Rx         0001  8  05 01 E0 0D DC 0D B8 CB 
  1296)      5462.9  Rx         0001  8  05 01 DA C2 5E 8E E1 19 
  1297)      5463.0  Rx         0001  8  05 01 D7 40 02 00 F7 F9 
  1298)      5463.0  Rx         0001  8  05 01 D1 2E D4 2F 0A 00 
  1299)      5464.2  Rx         0001  2  02 01 
  1300)      5465.9  Rx         0002  6  02 01 00 42 00 00 
  1301)      5467.0  Rx         0001  8  05 01 06 FF 0C 00 98 AF 
  1302)      5467.0  Rx         0001  8  05 01 98 9F 98 8F 98 7F 
  1303)      5467.1  Rx         0001  8  05 01 98 6F 98 1F 98 0F 
  1304)      5467.1  Rx         0001  8  05 01 DB 00 88 0F 88 1F 
  1305)      5467.1  Rx         0001  8  05 01 88 6F 88 7F 88 8F 
  1306)      5467.2  Rx         0001  8  05 01 88 9F 88 AF 26 FF 
  1307)      5467.2  Rx         0001  8  05 01 0C 00 B8 2F C4 3F 
  1308)      5467.2  Rx         0001  8  05 01 02 00 C4 4F 0A 00 
  1309)      5467.3  Rx         0001  8  05 01 C4 5F 08 00 C4 BF 
  1310)      5467.3  Rx         0001  8  05 01 06 00 C4 CF 04 00 
  1311)      5467.3  Rx         0001  8  05 01 F0 24 F0 35 F0 4B 
  1312)      5469.2  Rx         0001  2  02 01 
  1313)      5470.2  Rx         0002  6  02 01 00 42 00 00 
  1314)      5471.3  Rx         0001  8  05 01 F0 5C A8 BF D4 CF 
  1315)      5471.3  Rx         0001  8  05 01 02 00 06 FB 0C 00 
  1316)      5471.3  Rx         0001  8  05 01 18 C0 DA C2 C0 59 
  1317)      5471.4  Rx         0001  8  05 01 DC 0C A9 9B C0 9B 
  1318)      5471.4  Rx         0001  8  05 01 48 B6 EA E0 76 1B 
  1319)      5471.4  Rx         0001  8  05 01 5C 1B D7 00 C2 00 
  1320)      5471.5  Rx         0001  8  05 01 D4 BB EC C4 9C 0B 
  1321)      5471.5  Rx         0001  8  05 01 E0 04 E0 05 DA C2 
  1322)      5471.5  Rx         0001  8  05 01 7E 93 F1 44 EA 20 
  1323)      5471.6  Rx         0001  8  05 01 58 1B A8 BF D4 CF 
  1324)      5471.6  Rx         0001  8  05 01 02 00 DC 0C A8 DB 
  1325)      5473.2  Rx         0001  2  02 01 
  1326)      5474.5  Rx         0002  6  02 01 00 42 00 00 
  1327)      5475.5  Rx         0001  8  05 01 08 B2 18 C0 E1 19 
  1328)      5475.6  Rx         0001  8  05 01 DC 0C A8 BB 06 FD 
  1329)      5475.6  Rx         0001  8  05 01 2A 00 18 B0 DC 0B 
  1330)      5475.6  Rx         0001  8  05 01 B9 9D A8 BF D4 CF 
  1331)      5475.7  Rx         0001  8  05 01 02 00 DC 0C A8 2B 
  1332)      5475.7  Rx         0001  8  05 01 08 B2 18 C0 F0 72 
  1333)      5475.7  Rx         0001  8  05 01 DC 0C A8 3B F0 A3 
  1334)      5475.8  Rx         0001  8  05 01 06 F7 10 00 18 A0 
  1335)      5475.8  Rx         0001  8  05 01 F0 B7 F0 CA DC 0C 
  1336)      5475.8  Rx         0001  8  05 01 A8 9B 08 B2 18 C0 
  1337)      5475.9  Rx         0001  8  05 01 DC 0C A8 8B DA C2 
  1338)      5477.1  Rx         0001  2  02 01 
  1339)      5478.8  Rx         0002  6  02 01 00 42 00 00 
  1340)      5479.8  Rx         0001  8  05 01 82 9F DA C2 36 9E 
  1341)      5479.8  Rx         0001  8  05 01 F0 42 F0 53 F0 29 
  1342)      5479.9  Rx         0001  8  05 01 F0 38 DA C2 C0 59 
  1343)      5479.9  Rx         0001  8  05 01 DC 0A B8 27 08 72 
  1344)      5479.9  Rx         0001  8  05 01 18 A0 DC 0A B8 37 
  1345)      5480.0  Rx         0001  8  05 01 EA 00 76 1B A8 BF 
  1346)      5480.0  Rx         0001  8  05 01 D4 DF 02 00 DC 0D 
  1347)      5480.0  Rx         0001  8  05 01 A8 CB 08 B2 18 D0 
  1348)      5480.0  Rx         0001  8  05 01 DC 0D A8 BB F0 DC 
  1349)      5480.1  Rx         0001  8  05 01 F0 EB 06 FD 1C 00 
  1350)      5480.1  Rx         0001  8  05 01 18 E0 DC 0E A8 2D 
  1351)      5482.2  Rx         0001  2  02 01 
  1352)      5483.0  Rx         0002  6  02 01 00 42 00 00 
  1353)      5484.1  Rx         0001  8  05 01 08 D2 18 E0 DC 0E 
  1354)      5484.1  Rx         0001  8  05 01 A8 3D F0 DC F0 EB 
  1355)      5484.2  Rx         0001  8  05 01 06 FD 20 00 18 E0 
  1356)      5484.2  Rx         0001  8  05 01 DC 0E A8 4D 08 D2 
  1357)      5484.2  Rx         0001  8  05 01 18 E0 DC 0E A8 5D 
  1358)      5484.3  Rx         0001  8  05 01 DA C2 C4 59 F0 DC 
  1359)      5484.3  Rx         0001  8  05 01 F0 EB 06 FD 24 00 
  1360)      5484.3  Rx         0001  8  05 01 18 E0 DC 0E A8 4D 
  1361)      5484.4  Rx         0001  8  05 01 08 D2 18 E0 DC 0E 
  1362)      5484.4  Rx         0001  8  05 01 A8 5D DA C2 C4 59 
  1363)      5484.4  Rx         0001  8  05 01 D4 4F 06 00 D4 5F 
  1364)      5486.1  Rx         0001  2  02 01 
  1365)      5487.3  Rx         0002  6  02 01 00 42 00 00 
  1366)      5488.3  Rx         0001  8  05 01 04 00 DA C2 C4 59 
  1367)      5488.4  Rx         0001  8  05 01 F0 4C F0 5B 06 F4 
  1368)      5488.4  Rx         0001  8  05 01 28 00 18 50 F0 D2 
  1369)      5488.4  Rx         0001  8  05 01 F0 E3 DC 05 A8 24 
  1370)      5488.4  Rx         0001  8  05 01 DA C2 36 9E F0 42 
  1371)      5488.5  Rx         0001  8  05 01 F0 53 F0 2D F0 3E 
  1372)      5488.5  Rx         0001  8  05 01 DA C2 EE 92 F1 44 
  1373)      5488.5  Rx         0001  8  05 01 EA 20 58 1B F0 7C 
  1374)      5488.6  Rx         0001  8  05 01 F0 AB 06 F7 10 00 
  1375)      5488.6  Rx         0001  8  05 01 18 A0 F0 D7 F0 EA 
  1376)      5488.6  Rx         0001  8  05 01 DC 0E A8 9D 08 D2 
  1377)      5490.2  Rx         0001  2  02 01 
  1378)      5491.6  Rx         0002  6  02 01 00 42 00 00 
  1379)      5497.2  Rx         0001  8  05 01 18 E0 F0 2C F0 3B 
  1380)      5497.4  Rx         0001  8  05 01 DC 0E A8 8D DA C2 
  1381)      5497.7  Rx         0001  8  05 01 82 9F DA C2 36 9E 
  1382)      5498.0  Rx         0001  8  05 01 F0 42 F0 53 F0 29 
  1383)      5498.2  Rx         0001  8  05 01 F0 38 DA C2 C0 59 
  1384)      5498.7  Rx         0001  8  05 01 DC 0A B8 27 08 72 
  1385)      5498.7  Rx         0001  8  05 01 18 A0 E1 19 DC 0A 
  1386)      5498.8  Rx         0001  8  05 01 B8 37 A8 BF D4 CF 
  1387)      5498.9  Rx         0001  8  05 01 02 00 DC 0C A8 DB 
  1388)      5499.0  Rx         0001  8  05 01 08 B2 18 C0 DC 0C 
  1389)      5499.1  Rx         0001  8  05 01 A8 BB 06 FD 2A 00 
  1390)      5501.3  Rx         0001  2  02 01 
  1391)      5501.8  Rx         0002  6  02 01 00 42 00 00 
  1392)      5503.0  Rx         0001  8  05 01 18 B0 0D 0D A8 BF 
  1393)      5503.2  Rx         0001  8  05 01 D4 CF 02 00 DC 0C 
  1394)      5503.3  Rx         0001  8  05 01 A8 DB 08 B2 18 C0 
  1395)      5503.4  Rx         0001  8  05 01 E1 09 DC 0C A8 BB 
  1396)      5503.6  Rx         0001  8  05 01 06 FD 2A 00 18 B0 
  1397)      5503.7  Rx         0001  8  05 01 DC 0B B9 9D A8 BF 
  1398)      5503.8  Rx         0001  8  05 01 D4 CF 02 00 DC 0C 
  1399)      5503.9  Rx         0001  8  05 01 A8 2B 08 B2 18 C0 
  1400)      5504.0  Rx         0001  8  05 01 D4 4F 0A 00 DC 0C 
  1401)      5504.1  Rx         0001  8  05 01 A8 3B D4 5F 08 00 
  1402)      5504.3  Rx         0001  8  05 01 DA C2 10 88 A8 BF 
  1403)      5506.2  Rx         0001  2  02 01 
  1404)      5506.8  Rx         0002  6  02 01 00 42 00 00 
  1405)      5507.9  Rx         0001  8  05 01 D4 CF 02 00 DC 0C 
  1406)      5507.9  Rx         0001  8  05 01 A8 2B 08 B2 18 C0 
  1407)      5507.9  Rx         0001  8  05 01 D4 4F 06 00 DC 0C 
  1408)      5508.0  Rx         0001  8  05 01 A8 3B D4 5F 04 00 
  1409)      5508.0  Rx         0001  8  05 01 DA C1 62 26 06 FF 
  1410)      5508.0  Rx         0001  8  05 01 0C 00 98 AF 98 9F 
  1411)      5508.1  Rx         0001  8  05 01 98 8F 98 7F 98 6F 
  1412)      5508.1  Rx         0001  8  05 01 98 1F 98 0F DB 00 
  1413)      5508.1  Rx         0001  8  05 01 DA C2 E2 A3 48 20 
  1414)      5508.2  Rx         0001  8  05 01 EA 20 70 1D 08 21 
  1415)      5508.2  Rx         0001  8  05 01 0E F2 08 24 F0 12 
  1416)      5510.2  Rx         0001  2  02 01 
  1417)      5511.1  Rx         0002  6  02 01 00 42 00 00 
  1418)      5512.2  Rx         0001  8  05 01 D7 00 E0 00 F2 FB 
  1419)      5512.2  Rx         0001  8  05 01 22 6A D7 00 E0 00 
  1420)      5512.2  Rx         0001  8  05 01 F2 FC 24 6A 70 CB 
  1421)      5512.3  Rx         0001  8  05 01 3D 2F E0 02 DA C2 
  1422)      5512.3  Rx         0001  8  05 01 86 A8 81 20 68 21 
  1423)      5512.3  Rx         0001  8  05 01 F0 82 08 24 DA C2 
  1424)      5512.4  Rx         0001  8  05 01 86 A8 F0 B3 46 F2 
  1425)      5512.4  Rx         0001  8  05 01 FF FF 36 FB FF FF 
  1426)      5512.4  Rx         0001  8  05 01 EA 20 70 1D F0 B2 
  1427)      5512.5  Rx         0001  8  05 01 F0 C3 00 B8 18 C0 
  1428)      5512.5  Rx         0001  8  05 01 D7 00 E0 00 F6 FB 
  1429)      5514.1  Rx         0001  2  02 01 
  1430)      5515.4  Rx         0002  6  02 01 00 42 00 00 
  1431)      5516.6  Rx         0001  8  05 01 22 6A D7 00 E0 00 
  1432)      5516.7  Rx         0001  8  05 01 F6 FC 24 6A F0 B8 
  1433)      5516.7  Rx         0001  8  05 01 BC FB 00 28 10 3B 
  1434)      5516.8  Rx         0001  8  05 01 D7 00 E0 00 F6 F2 
  1435)      5516.8  Rx         0001  8  05 01 1E 6A D7 00 E0 00 
  1436)      5516.8  Rx         0001  8  05 01 F6 F3 20 6A E0 0B 
  1437)      5516.9  Rx         0001  8  05 01 DC 03 B8 B2 08 22 
  1438)      5516.9  Rx         0001  8  05 01 18 30 DC 03 B8 B2 
  1439)      5516.9  Rx         0001  8  05 01 D7 00 E0 00 F2 F9 
  1440)      5517.0  Rx         0001  8  05 01 22 6A D7 00 E0 00 
  1441)      5517.0  Rx         0001  8  05 01 F2 F8 24 6A 0D 04 
  1442)      5518.2  Rx         0001  2  02 01 
  1443)      5519.8  Rx         0002  6  02 01 00 42 00 00 
  1444)      5520.9  Rx         0001  8  05 01 00 9B 10 8C 28 91 
  1445)      5520.9  Rx         0001  8  05 01 38 80 F0 C9 F0 D8 
  1446)      5521.0  Rx         0001  8  05 01 DC 0D A8 BC 08 C2 
  1447)      5521.0  Rx         0001  8  05 01 18 D0 DC 0D A8 CC 
  1448)      5521.0  Rx         0001  8  05 01 F0 DC 70 DB 2D 02 
  1449)      5521.0  Rx         0001  8  05 01 8A FB EF 00 D7 00 
  1450)      5521.1  Rx         0001  8  05 01 E0 00 F6 F9 22 6A 
  1451)      5521.1  Rx         0001  8  05 01 D7 00 E0 00 F6 F8 
  1452)      5521.1  Rx         0001  8  05 01 24 6A 0D 40 F0 B7 
  1453)      5521.2  Rx         0001  8  05 01 0E FB F0 69 F0 A8 
  1454)      5521.2  Rx         0001  8  05 01 00 6B 10 A0 8A F7 
  1455)      5523.2  Rx         0001  2  02 01 
  1456)      5524.1  Rx         0002  6  02 01 00 42 00 00 
  1457)      5525.2  Rx         0001  8  05 01 36 00 F0 B6 F0 CA 
  1458)      5525.2  Rx         0001  8  05 01 DC 0C A8 DB 08 B2 
  1459)      5525.3  Rx         0001  8  05 01 18 C0 DC 0C A8 BB 
  1460)      5525.3  Rx         0001  8  05 01 F0 CB 70 CD 3D 1F 
  1461)      5525.3  Rx         0001  8  05 01 E0 02 DA C2 86 A8 
  1462)      5525.3  Rx         0001  8  05 01 F0 B6 F0 CA 08 B4 
  1463)      5525.4  Rx         0001  8  05 01 18 C0 40 2B 30 3C 
  1464)      5525.4  Rx         0001  8  05 01 3D 21 F0 30 81 70 
  1465)      5525.4  Rx         0001  8  05 01 18 30 81 30 F0 27 
  1466)      5525.5  Rx         0001  8  05 01 DA C2 40 90 46 F2 
  1467)      5525.5  Rx         0001  8  05 01 FF FF 36 F3 FF FF 
  1468)      5527.2  Rx         0001  2  02 01 
  1469)      5528.4  Rx         0002  6  02 01 00 42 00 00 
  1470)      5529.5  Rx         0001  8  05 01 2D 15 E0 00 F0 B9 
  1471)      5529.6  Rx         0001  8  05 01 F0 C8 DC 0C B8 0B 
  1472)      5529.6  Rx         0001  8  05 01 DA C2 A4 A7 F0 70 
  1473)      5529.6  Rx         0001  8  05 01 0D 1F 8A FD 0A 00 
  1474)      5529.7  Rx         0001  8  05 01 00 7D 10 0B F0 B9 
  1475)      5529.7  Rx         0001  8  05 01 F0 C8 DC 0C B8 7B 
  1476)      5529.7  Rx         0001  8  05 01 DA C2 A4 A7 F0 69 
  1477)      5529.8  Rx         0001  8  05 01 F0 A8 F0 96 F0 8A 
  1478)      5529.8  Rx         0001  8  05 01 F0 B9 F0 C8 DC 0C 
  1479)      5529.8  Rx         0001  8  05 01 A8 7B 08 B2 18 C0 
  1480)      5529.9  Rx         0001  8  05 01 DC 0C A8 0B F0 B0 
  1481)      5532.6  Rx         0001  2  02 01 
  1482)      5533.2  Rx         0002  6  02 01 00 42 00 00 
  1483)      5534.2  Rx         0001  8  05 01 70 B7 2D 06 8A F7 
  1484)      5534.3  Rx         0001  8  05 01 B3 00 E0 0B 40 17 
  1485)      5534.3  Rx         0001  8  05 01 30 B0 ED AF F0 B0 
  1486)      5534.3  Rx         0001  8  05 01 70 B7 3D 3A F0 21 
  1487)      5534.4  Rx         0001  8  05 01 DA C2 86 A8 F0 A2 
  1488)      5534.4  Rx         0001  8  05 01 F0 63 46 FA FF FF 
  1489)      5534.4  Rx         0001  8  05 01 36 F3 FF FF 2D 12 
  1490)      5534.5  Rx         0001  8  05 01 DA C2 22 A4 8D 0F 
  1491)      5534.5  Rx         0001  8  05 01 DA C2 22 A4 FD 1E 
  1492)      5534.5  Rx         0001  8  05 01 F0 7A 81 70 68 71 
  1493)      5534.6  Rx         0001  8  05 01 F0 27 08 24 DA C2 
  1494)      5535.9  Rx         0001  2  02 01 
  1495)      5537.4  Rx         0002  6  02 01 00 42 00 00 
  1496)      5538.6  Rx         0001  8  05 01 86 A8 46 F2 FF FF 
  1497)      5538.6  Rx         0001  8  05 01 36 F3 FF FF 3D 03 
  1498)      5538.7  Rx         0001  8  05 01 E0 02 E0 03 0D 3B 
  1499)      5538.7  Rx         0001  8  05 01 00 A7 18 60 F0 BA 
  1500)      5538.8  Rx         0001  8  05 01 F0 C6 20 B9 30 C8 
  1501)      5538.8  Rx         0001  8  05 01 0F FB DC 08 B8 B9 
  1502)      5538.8  Rx         0001  8  05 01 08 92 18 80 DC 08 
  1503)      5538.9  Rx         0001  8  05 01 B8 C9 F0 9A F0 86 
  1504)      5538.9  Rx         0001  8  05 01 F0 B9 F0 C8 00 B1 
  1505)      5539.0  Rx         0001  8  05 01 18 C0 E0 0D DC 0C 
  1506)      5539.0  Rx         0001  8  05 01 B8 DB 08 B2 18 C0 
  1507)      5541.1  Rx         0001  2  02 01 
  1508)      5541.8  Rx         0002  6  02 01 00 42 00 00 
  1509)      5542.9  Rx         0001  8  05 01 DC 0C B8 DB 0D 12 
  1510)      5542.9  Rx         0001  8  05 01 F0 B1 08 B4 F0 C0 
  1511)      5542.9  Rx         0001  8  05 01 40 7B 38 C0 8D 0B 
  1512)      5542.9  Rx         0001  8  05 01 F0 B9 F0 C8 00 B1 
  1513)      5543.0  Rx         0001  8  05 01 18 C0 20 71 38 00 
  1514)      5543.0  Rx         0001  8  05 01 DC 0C B8 7B DA C2 
  1515)      5543.0  Rx         0001  8  05 01 A4 A7 0D 01 F0 17 
  1516)      5543.1  Rx         0001  8  05 01 F0 C9 0F F1 F0 D8 
  1517)      5543.1  Rx         0001  8  05 01 DC 0D B8 1C 08 C2 
  1518)      5543.1  Rx         0001  8  05 01 18 D0 E0 0B DC 0D 
  1519)      5543.2  Rx         0001  8  05 01 B8 BC F0 29 F0 38 
  1520)      5545.1  Rx         0001  2  02 01 
  1521)      5546.1  Rx         0002  6  02 01 00 42 00 00 
  1522)      5547.1  Rx         0001  8  05 01 08 24 18 30 FA C2 
  1523)      5547.1  Rx         0001  8  05 01 A2 A3 28 F2 B3 FF 
  1524)      5547.2  Rx         0001  8  05 01 00 03 B3 FF 20 03 
  1525)      5547.2  Rx         0001  8  05 01 B3 FF 08 01 88 0F 
  1526)      5547.2  Rx         0001  8  05 01 88 1F 88 6F 88 7F 
  1527)      5547.3  Rx         0001  8  05 01 88 8F 88 9F 88 AF 
  1528)      5547.3  Rx         0001  8  05 01 26 FF 0C 00 C4 4F 
  1529)      5547.3  Rx         0001  8  05 01 08 00 C4 5F 0A 00 
  1530)      5547.4  Rx         0001  8  05 01 49 47 EA F0 26 1E 
  1531)      5547.4  Rx         0001  8  05 01 E6 FA 22 00 EA 00 
  1532)      5547.4  Rx         0001  8  05 01 EC 1F C0 4B E0 6C 
  1533)      5549.1  Rx         0001  2  02 01 
  1534)      5550.4  Rx         0002  6  02 01 00 42 00 00 
  1535)      5551.5  Rx         0001  8  05 01 1B BC E6 FD 14 A5 
  1536)      5551.5  Rx         0001  8  05 01 F2 FB 0C FE F2 FC 
  1537)      5551.5  Rx         0001  8  05 01 0E FE E6 FE 00 00 
  1538)      5551.6  Rx         0001  8  05 01 00 CD 10 BE DC 0B 
  1539)      5551.6  Rx         0001  8  05 01 A9 9C 49 95 EA 31 
  1540)      5551.6  Rx         0001  8  05 01 E8 1F 08 C2 18 B0 
  1541)      5551.6  Rx         0001  8  05 01 E0 05 DC 0B A8 DC 
  1542)      5551.7  Rx         0001  8  05 01 08 C2 18 B0 DC 0B 
  1543)      5551.7  Rx         0001  8  05 01 A8 BC F0 CD F0 EB 
  1544)      5551.7  Rx         0001  8  05 01 08 D4 18 B0 DC 0E 
  1545)      5551.8  Rx         0001  8  05 01 A8 8C 08 C2 18 E0 
  1546)      5561.1  Rx         0001  2  02 01 
  1547)      5561.7  Rx         0002  6  02 01 00 42 00 00 
  1548)      5562.8  Rx         0001  8  05 01 DC 0B A8 AD 08 D2 
  1549)      5562.9  Rx         0001  8  05 01 18 B0 DC 0E A8 9C 
  1550)      5563.0  Rx         0001  8  05 01 DC 0B A8 6D F0 B8 
  1551)      5563.1  Rx         0001  8  05 01 F0 C9 08 B4 18 C0 
  1552)      5563.1  Rx         0001  8  05 01 DC 0C A9 9B C0 9B 
