;$FILEVERSION=1.1
;$STARTTIME=46071.8979404861
;
;   Start time: 2/18/2026 21:33:02.058.0
;   Generated by PCAN-View v5.3.2.952
;
;   Message Number
;   |         Time Offset (ms)
;   |         |        Type
;   |         |        |        ID (hex)
;   |         |        |        |     Data Length
;   |         |        |        |     |   Data Bytes (hex) ...
;   |         |        |        |     |   |
;---+--   ----+----  --+--  ----+---  +  -+ -- -- -- -- -- -- --
     1)      3633.5  Rx         0001  7  11 FF 00 00 00 00 01 
     2)      3633.9  Rx         0001  2  03 FF 
     3)      3634.4  Rx         0001  2  01 FF 
     4)      3635.0  Rx         0600  8  2B 25 10 01 13 03 00 00 
     5)      3637.3  Rx         0001  2  01 FF 
     6)      3637.5  Warng  FFFFFFFF  4  00 00 00 08  BUSHEAVY 
     7)      3639.1  Rx         0601  8  2B 25 10 01 13 03 00 00 
     8)      3641.3  Rx         0001  2  01 FF 
     9)      3643.1  Rx         0602  8  2B 25 10 01 13 03 00 00 
    10)      3645.1  Rx         0001  2  01 FF 
    11)      3647.1  Rx         0603  8  2B 25 10 01 13 03 00 00 
    12)      3649.1  Rx         0001  2  01 FF 
    13)      3651.1  Rx         0604  8  2B 25 10 01 13 03 00 00 
    14)      3653.3  Rx         0001  2  01 FF 
    15)      3655.1  Rx         0605  8  2B 25 10 01 13 03 00 00 
    16)      3657.1  Rx         0001  2  01 FF 
    17)      3659.1  Rx         0606  8  2B 25 10 01 13 03 00 00 
    18)      3661.2  Rx         0001  2  01 FF 
    19)      3663.1  Rx         0607  8  2B 25 10 01 13 03 00 00 
    20)      3665.1  Rx         0001  2  01 FF 
    21)      3667.1  Rx         0608  8  2B 25 10 01 13 03 00 00 
    22)      3669.1  Rx         0001  2  01 FF 
    23)      3671.1  Rx         0609  8  2B 25 10 01 13 03 00 00 
    24)      3673.4  Rx         0001  2  01 FF 
    25)      3675.1  Rx         060A  8  2B 25 10 01 13 03 00 00 
    26)      3677.7  Rx         0001  2  01 FF 
    27)      3679.0  Rx         060B  8  2B 25 10 01 13 03 00 00 
    28)      3681.5  Rx         0001  2  01 FF 
    29)      3683.0  Rx         060C  8  2B 25 10 01 13 03 00 00 
    30)      3685.2  Rx         0001  2  01 FF 
    31)      3687.0  Rx         060D  8  2B 25 10 01 13 03 00 00 
    32)      3689.1  Rx         0001  2  01 FF 
    33)      3691.0  Rx         060E  8  2B 25 10 01 13 03 00 00 
    34)      3693.1  Rx         0001  2  01 FF 
    35)      3695.1  Rx         060F  8  2B 25 10 01 13 03 00 00 
    36)      3697.2  Rx         0001  2  01 FF 
    37)      3699.1  Rx         0610  8  2B 25 10 01 13 03 00 00 
    38)      3700.2  Rx         0001  2  01 FF 
    39)      3702.1  Rx         0611  8  2B 25 10 01 13 03 00 00 
    40)      3704.3  Rx         0001  2  01 FF 
    41)      3706.1  Rx         0612  8  2B 25 10 01 13 03 00 00 
    42)      3708.5  Rx         0001  2  01 FF 
    43)      3710.1  Rx         0613  8  2B 25 10 01 13 03 00 00 
    44)      3712.3  Rx         0001  2  01 FF 
    45)      3714.1  Rx         0614  8  2B 25 10 01 13 03 00 00 
    46)      3716.2  Rx         0001  2  01 FF 
    47)      3718.1  Rx         0615  8  2B 25 10 01 13 03 00 00 
    48)      3719.4  Rx         0001  2  01 FF 
    49)      3721.2  Rx         0616  8  2B 25 10 01 13 03 00 00 
    50)      3723.5  Rx         0001  2  01 FF 
    51)      3725.2  Rx         0617  8  2B 25 10 01 13 03 00 00 
    52)      3727.3  Rx         0001  2  01 FF 
    53)      3729.2  Rx         0618  8  2B 25 10 01 13 03 00 00 
    54)      3731.4  Rx         0001  2  01 FF 
    55)      3733.2  Rx         0619  8  2B 25 10 01 13 03 00 00 
    56)      3735.2  Rx         0001  2  01 FF 
    57)      3737.2  Rx         061A  8  2B 25 10 01 13 03 00 00 
    58)      3739.2  Rx         0001  2  01 FF 
    59)      3741.2  Rx         061B  8  2B 25 10 01 13 03 00 00 
    60)      3743.3  Rx         0001  2  01 FF 
    61)      3745.2  Rx         061C  8  2B 25 10 01 13 03 00 00 
    62)      3747.2  Rx         0001  2  01 FF 
    63)      3749.2  Rx         061D  8  2B 25 10 01 13 03 00 00 
    64)      3751.3  Rx         0001  2  01 FF 
    65)      3753.2  Rx         061E  8  2B 25 10 01 13 03 00 00 
    66)      3755.4  Rx         0001  2  01 FF 
    67)      3757.2  Rx         061F  8  2B 25 10 01 13 03 00 00 
    68)      3759.3  Rx         0001  2  01 FF 
    69)      3761.2  Rx         0620  8  2B 25 10 01 13 03 00 00 
    70)      3763.3  Rx         0001  2  01 FF 
    71)      3765.2  Rx         0621  8  2B 25 10 01 13 03 00 00 
    72)      3767.8  Rx         0001  2  01 FF 
    73)      3769.2  Rx         0622  8  2B 25 10 01 13 03 00 00 
    74)      3771.4  Rx         0001  2  01 FF 
    75)      3773.2  Rx         0623  8  2B 25 10 01 13 03 00 00 
    76)      3775.2  Rx         0001  2  01 FF 
    77)      3777.2  Rx         0624  8  2B 25 10 01 13 03 00 00 
    78)      3779.2  Rx         0001  2  01 FF 
    79)      3781.2  Rx         0625  8  2B 25 10 01 13 03 00 00 
    80)      3783.2  Rx         0001  2  01 FF 
    81)      3785.2  Rx         0626  8  2B 25 10 01 13 03 00 00 
    82)      3787.3  Rx         0001  2  01 FF 
    83)      3789.2  Rx         0627  8  2B 25 10 01 13 03 00 00 
    84)      3791.3  Rx         0001  2  01 FF 
    85)      3793.2  Rx         0628  8  2B 25 10 01 13 03 00 00 
    86)      3795.2  Rx         0001  2  01 FF 
    87)      3797.2  Rx         0629  8  2B 25 10 01 13 03 00 00 
    88)      3799.2  Rx         0001  2  01 FF 
    89)      3801.2  Rx         062A  8  2B 25 10 01 13 03 00 00 
    90)      3803.2  Rx         0001  2  01 FF 
    91)      3805.2  Rx         062B  8  2B 25 10 01 13 03 00 00 
    92)      3807.2  Rx         0001  2  01 FF 
    93)      3809.2  Rx         062C  8  2B 25 10 01 13 03 00 00 
    94)      3811.4  Rx         0001  2  01 FF 
    95)      3813.2  Rx         062D  8  2B 25 10 01 13 03 00 00 
    96)      3815.5  Rx         0001  2  01 FF 
    97)      3817.2  Rx         062E  8  2B 25 10 01 13 03 00 00 
    98)      3819.6  Rx         0001  2  01 FF 
    99)      3821.4  Rx         062F  8  2B 25 10 01 13 03 00 00 
   100)      3823.5  Rx         0001  2  01 FF 
   101)      3825.4  Rx         0630  8  2B 25 10 01 13 03 00 00 
   102)      3827.5  Rx         0001  2  01 FF 
   103)      3829.5  Rx         0631  8  2B 25 10 01 13 03 00 00 
   104)      3831.5  Rx         0001  2  01 FF 
   105)      3833.5  Rx         0632  8  2B 25 10 01 13 03 00 00 
   106)      3835.4  Rx         0001  2  01 FF 
   107)      3837.4  Rx         0633  8  2B 25 10 01 13 03 00 00 
   108)      3838.5  Rx         0001  2  01 FF 
   109)      3840.5  Rx         0634  8  2B 25 10 01 13 03 00 00 
   110)      3842.5  Rx         0001  2  01 FF 
   111)      3844.4  Rx         0635  8  2B 25 10 01 13 03 00 00 
   112)      3846.5  Rx         0001  2  01 FF 
   113)      3848.5  Rx         0636  8  2B 25 10 01 13 03 00 00 
   114)      3850.4  Rx         0001  2  01 FF 
   115)      3852.5  Rx         0637  8  2B 25 10 01 13 03 00 00 
   116)      3854.6  Rx         0001  2  01 FF 
   117)      3856.5  Rx         0638  8  2B 25 10 01 13 03 00 00 
   118)      3858.5  Rx         0001  2  01 FF 
   119)      3860.4  Rx         0639  8  2B 25 10 01 13 03 00 00 
   120)      3862.5  Rx         0001  2  01 FF 
   121)      3864.4  Rx         063A  8  2B 25 10 01 13 03 00 00 
   122)      3866.4  Rx         0001  2  01 FF 
   123)      3868.5  Rx         063B  8  2B 25 10 01 13 03 00 00 
   124)      3870.5  Rx         0001  2  01 FF 
   125)      3872.5  Rx         063C  8  2B 25 10 01 13 03 00 00 
   126)      3874.4  Rx         0001  2  01 FF 
   127)      3876.5  Rx         063D  8  2B 25 10 01 13 03 00 00 
   128)      3878.5  Rx         0001  2  01 FF 
   129)      3880.5  Rx         063E  8  2B 25 10 01 13 03 00 00 
   130)      3882.5  Rx         0001  2  01 FF 
   131)      3884.4  Rx         063F  8  2B 25 10 01 13 03 00 00 
   132)      3886.4  Rx         0001  2  01 FF 
   133)      3888.5  Rx         0640  8  2B 25 10 01 13 03 00 00 
   134)      3890.5  Rx         0001  2  01 FF 
   135)      3892.5  Rx         0641  8  2B 25 10 01 13 03 00 00 
   136)      3894.5  Rx         0001  2  01 FF 
   137)      3896.4  Rx         0642  8  2B 25 10 01 13 03 00 00 
   138)      3898.4  Rx         0001  2  01 FF 
   139)      3900.4  Rx         0643  8  2B 25 10 01 13 03 00 00 
   140)      3902.5  Rx         0001  2  01 FF 
   141)      3904.4  Rx         0644  8  2B 25 10 01 13 03 00 00 
   142)      3906.6  Rx         0001  2  01 FF 
   143)      3908.4  Rx         0645  8  2B 25 10 01 13 03 00 00 
   144)      3910.5  Rx         0001  2  01 FF 
   145)      3912.5  Rx         0646  8  2B 25 10 01 13 03 00 00 
   146)      3914.5  Rx         0001  2  01 FF 
   147)      3916.5  Rx         0647  8  2B 25 10 01 13 03 00 00 
   148)      3918.5  Rx         0001  2  01 FF 
   149)      3920.5  Rx         0648  8  2B 25 10 01 13 03 00 00 
   150)      3921.7  Rx         0001  2  01 FF 
   151)      3923.7  Rx         0649  8  2B 25 10 01 13 03 00 00 
   152)      3925.7  Rx         0001  2  01 FF 
   153)      3927.6  Rx         064A  8  2B 25 10 01 13 03 00 00 
   154)      3929.7  Rx         0001  2  01 FF 
   155)      3931.7  Rx         064B  8  2B 25 10 01 13 03 00 00 
   156)      3933.7  Rx         0001  2  01 FF 
   157)      3935.7  Rx         064C  8  2B 25 10 01 13 03 00 00 
   158)      3937.9  Rx         0001  2  01 FF 
   159)      3939.6  Rx         064D  8  2B 25 10 01 13 03 00 00 
   160)      3941.7  Rx         0001  2  01 FF 
   161)      3943.5  Rx         064E  8  2B 25 10 01 13 03 00 00 
   162)      3945.7  Rx         0001  2  01 FF 
   163)      3947.7  Rx         064F  8  2B 25 10 01 13 03 00 00 
   164)      3949.7  Rx         0001  2  01 FF 
   165)      3951.7  Rx         0650  8  2B 25 10 01 13 03 00 00 
   166)      3953.7  Rx         0001  2  01 FF 
   167)      3955.7  Rx         0651  8  2B 25 10 01 13 03 00 00 
   168)      3957.7  Rx         0001  2  01 FF 
   169)      3959.7  Rx         0652  8  2B 25 10 01 13 03 00 00 
   170)      3961.7  Rx         0001  2  01 FF 
   171)      3963.6  Rx         0653  8  2B 25 10 01 13 03 00 00 
   172)      3965.8  Rx         0001  2  01 FF 
   173)      3967.5  Rx         0654  8  2B 25 10 01 13 03 00 00 
   174)      3968.7  Rx         0001  2  01 FF 
   175)      3970.7  Rx         0655  8  2B 25 10 01 13 03 00 00 
   176)      3972.7  Rx         0001  2  01 FF 
   177)      3974.7  Rx         0656  8  2B 25 10 01 13 03 00 00 
   178)      3976.7  Rx         0001  2  01 FF 
   179)      3978.7  Rx         0657  8  2B 25 10 01 13 03 00 00 
   180)      3980.6  Rx         0001  2  01 FF 
   181)      3982.6  Rx         0658  8  2B 25 10 01 13 03 00 00 
   182)      3984.7  Rx         0001  2  01 FF 
   183)      3986.7  Rx         0659  8  2B 25 10 01 13 03 00 00 
   184)      3988.6  Rx         0001  2  01 FF 
   185)      3990.7  Rx         065A  8  2B 25 10 01 13 03 00 00 
   186)      3992.7  Rx         0001  2  01 FF 
   187)      3994.5  Rx         065B  8  2B 25 10 01 13 03 00 00 
   188)      3996.7  Rx         0001  2  01 FF 
   189)      3999.8  Rx         065C  8  2B 25 10 01 13 03 00 00 
   190)      4001.6  Rx         0001  2  01 FF 
   191)      4003.7  Rx         065D  8  2B 25 10 01 13 03 00 00 
   192)      4005.7  Rx         0001  2  01 FF 
   193)      4007.7  Rx         065E  8  2B 25 10 01 13 03 00 00 
   194)      4009.7  Rx         0001  2  01 FF 
   195)      4015.8  Rx         065F  8  2B 25 10 01 13 03 00 00 
   196)      4017.8  Rx         0001  2  01 FF 
   197)      4019.8  Rx         0660  8  2B 25 10 01 13 03 00 00 
   198)      4021.8  Rx         0001  2  01 FF 
   199)      4023.7  Rx         0661  8  2B 25 10 01 13 03 00 00 
   200)      4024.8  Rx         0001  2  01 FF 
   201)      4026.8  Rx         0662  8  2B 25 10 01 13 03 00 00 
   202)      4028.8  Rx         0001  2  01 FF 
   203)      4030.8  Rx         0663  8  2B 25 10 01 13 03 00 00 
   204)      4032.7  Rx         0001  2  01 FF 
   205)      4034.8  Rx         0664  8  2B 25 10 01 13 03 00 00 
   206)      4036.8  Rx         0001  2  01 FF 
   207)      4038.8  Rx         0665  8  2B 25 10 01 13 03 00 00 
   208)      4040.8  Rx         0001  2  01 FF 
   209)      4042.8  Rx         0666  8  2B 25 10 01 13 03 00 00 
   210)      4044.9  Rx         0001  2  01 FF 
   211)      4046.8  Rx         0667  8  2B 25 10 01 13 03 00 00 
   212)      4048.8  Rx         0001  2  01 FF 
   213)      4051.1  Rx         0668  8  2B 25 10 01 13 03 00 00 
   214)      4053.4  Rx         0001  2  01 FF 
   215)      4055.0  Rx         0669  8  2B 25 10 01 13 03 00 00 
   216)      4056.6  Rx         0001  2  01 FF 
   217)      4058.2  Rx         066A  8  2B 25 10 01 13 03 00 00 
   218)      4062.9  Rx         0001  2  01 FF 
   219)      4064.9  Rx         066B  8  2B 25 10 01 13 03 00 00 
   220)      4066.8  Rx         0001  2  01 FF 
   221)      4068.9  Rx         066C  8  2B 25 10 01 13 03 00 00 
   222)      4070.9  Rx         0001  2  01 FF 
   223)      4072.9  Rx         066D  8  2B 25 10 01 13 03 00 00 
   224)      4074.9  Rx         0001  2  01 FF 
   225)      4076.8  Rx         066E  8  2B 25 10 01 13 03 00 00 
   226)      4079.0  Rx         0001  2  01 FF 
   227)      4080.9  Rx         066F  8  2B 25 10 01 13 03 00 00 
   228)      4083.0  Rx         0001  2  01 FF 
   229)      4084.9  Rx         0670  8  2B 25 10 01 13 03 00 00 
   230)      4086.9  Rx         0001  2  01 FF 
   231)      4088.9  Rx         0671  8  2B 25 10 01 13 03 00 00 
   232)      4090.9  Rx         0001  2  01 FF 
   233)      4092.8  Rx         0672  8  2B 25 10 01 13 03 00 00 
   234)      4094.9  Rx         0001  2  01 FF 
   235)      4096.9  Rx         0673  8  2B 25 10 01 13 03 00 00 
   236)      4098.9  Rx         0001  2  01 FF 
   237)      4100.9  Rx         0674  8  2B 25 10 01 13 03 00 00 
   238)      4102.8  Rx         0001  2  01 FF 
   239)      4104.9  Rx         0675  8  2B 25 10 01 13 03 00 00 
   240)      4106.9  Rx         0001  2  01 FF 
   241)      4108.9  Rx         0676  8  2B 25 10 01 13 03 00 00 
   242)      4119.9  Rx         0001  2  01 FF 
   243)      4123.4  Rx         0677  8  2B 25 10 01 13 03 00 00 
   244)      4125.7  Rx         0001  2  01 FF 
   245)      4127.3  Rx         0678  8  2B 25 10 01 13 03 00 00 
   246)      4129.3  Rx         0001  2  01 FF 
   247)      4132.1  Rx         0679  8  2B 25 10 01 13 03 00 00 
   248)      4133.2  Rx         0001  2  01 FF 
   249)      4135.2  Rx         067A  8  2B 25 10 01 13 03 00 00 
   250)      4137.3  Rx         0001  2  01 FF 
   251)      4139.2  Rx         067B  8  2B 25 10 01 13 03 00 00 
   252)      4140.2  Rx         0001  2  01 FF 
   253)      4142.2  Rx         067C  8  2B 25 10 01 13 03 00 00 
   254)      4144.4  Rx         0001  2  01 FF 
   255)      4146.2  Rx         067D  8  2B 25 10 01 13 03 00 00 
   256)      4148.3  Rx         0001  2  01 FF 
   257)      4150.2  Rx         067E  8  2B 25 10 01 13 03 00 00 
   258)      4152.3  Rx         0001  2  01 FF 
   259)      4154.3  Rx         067F  8  2B 25 10 01 13 03 00 00 
   260)      4156.2  Rx         0001  2  01 FF 
   261)      4158.2  Rx         0680  8  2B 25 10 01 13 03 00 00 
   262)      4160.2  Rx         0001  2  01 FF 
   263)      4162.2  Rx         0681  8  2B 25 10 01 13 03 00 00 
   264)      4164.2  Rx         0001  2  01 FF 
   265)      4166.2  Rx         0682  8  2B 25 10 01 13 03 00 00 
   266)      4168.3  Rx         0001  2  01 FF 
   267)      4170.2  Rx         0683  8  2B 25 10 01 13 03 00 00 
   268)      4172.3  Rx         0001  2  01 FF 
   269)      4174.4  Rx         0684  8  2B 25 10 01 13 03 00 00 
   270)      4176.5  Rx         0001  2  01 FF 
   271)      4178.4  Rx         0685  8  2B 25 10 01 13 03 00 00 
   272)      4180.5  Rx         0001  2  01 FF 
   273)      4182.4  Rx         0686  8  2B 25 10 01 13 03 00 00 
   274)      4184.3  Rx         0001  2  01 FF 
   275)      4186.2  Rx         0687  8  2B 25 10 01 13 03 00 00 
   276)      4188.3  Rx         0001  2  01 FF 
   277)      4190.3  Rx         0688  8  2B 25 10 01 13 03 00 00 
   278)      4192.3  Rx         0001  2  01 FF 
   279)      4194.2  Rx         0689  8  2B 25 10 01 13 03 00 00 
   280)      4196.3  Rx         0001  2  01 FF 
   281)      4198.3  Rx         068A  8  2B 25 10 01 13 03 00 00 
   282)      4200.3  Rx         0001  2  01 FF 
   283)      4202.3  Rx         068B  8  2B 25 10 01 13 03 00 00 
   284)      4204.4  Rx         0001  2  01 FF 
   285)      4206.3  Rx         068C  8  2B 25 10 01 13 03 00 00 
   286)      4208.3  Rx         0001  2  01 FF 
   287)      4210.2  Rx         068D  8  2B 25 10 01 13 03 00 00 
   288)      4212.4  Rx         0001  2  01 FF 
   289)      4214.3  Rx         068E  8  2B 25 10 01 13 03 00 00 
   290)      4216.4  Rx         0001  2  01 FF 
   291)      4218.8  Rx         068F  8  2B 25 10 01 13 03 00 00 
   292)      4220.9  Rx         0001  2  01 FF 
   293)      4222.8  Rx         0690  8  2B 25 10 01 13 03 00 00 
   294)      4224.8  Rx         0001  2  01 FF 
   295)      4226.7  Rx         0691  8  2B 25 10 01 13 03 00 00 
   296)      4227.9  Rx         0001  2  01 FF 
   297)      4229.8  Rx         0692  8  2B 25 10 01 13 03 00 00 
   298)      4231.9  Rx         0001  2  01 FF 
   299)      4233.8  Rx         0693  8  2B 25 10 01 13 03 00 00 
   300)      4235.8  Rx         0001  2  01 FF 
   301)      4237.8  Rx         0694  8  2B 25 10 01 13 03 00 00 
   302)      4239.9  Rx         0001  2  01 FF 
   303)      4241.8  Rx         0695  8  2B 25 10 01 13 03 00 00 
   304)      4243.8  Rx         0001  2  01 FF 
   305)      4245.8  Rx         0696  8  2B 25 10 01 13 03 00 00 
   306)      4249.2  Rx         0001  2  01 FF 
   307)      4250.8  Rx         0697  8  2B 25 10 01 13 03 00 00 
   308)      4252.9  Rx         0001  2  01 FF 
   309)      4254.8  Rx         0698  8  2B 25 10 01 13 03 00 00 
   310)      4256.9  Rx         0001  2  01 FF 
   311)      4258.8  Rx         0699  8  2B 25 10 01 13 03 00 00 
   312)      4261.6  Rx         0001  2  01 FF 
   313)      4262.9  Rx         069A  8  2B 25 10 01 13 03 00 00 
   314)      4264.9  Rx         0001  2  01 FF 
   315)      4266.8  Rx         069B  8  2B 25 10 01 13 03 00 00 
   316)      4268.9  Rx         0001  2  01 FF 
   317)      4270.8  Rx         069C  8  2B 25 10 01 13 03 00 00 
   318)      4272.8  Rx         0001  2  01 FF 
   319)      4274.8  Rx         069D  8  2B 25 10 01 13 03 00 00 
   320)      4276.7  Rx         0001  2  01 FF 
   321)      4278.8  Rx         069E  8  2B 25 10 01 13 03 00 00 
   322)      4280.9  Rx         0001  2  01 FF 
   323)      4282.8  Rx         069F  8  2B 25 10 01 13 03 00 00 
   324)      4284.7  Rx         0001  2  01 FF 
   325)      4286.8  Rx         06A0  8  2B 25 10 01 13 03 00 00 
   326)      4288.8  Rx         0001  2  01 FF 
   327)      4290.9  Rx         06A1  8  2B 25 10 01 13 03 00 00 
   328)      4292.6  Rx         0001  2  01 FF 
   329)      4294.0  Rx         06A2  8  2B 25 10 01 13 03 00 00 
   330)      4298.5  Rx         0001  2  01 FF 
   331)      4299.6  Rx         06A3  8  2B 25 10 01 13 03 00 00 
   332)      4301.7  Rx         0001  2  01 FF 
   333)      4303.7  Rx         06A4  8  2B 25 10 01 13 03 00 00 
   334)      4305.7  Rx         0001  2  01 FF 
   335)      4307.7  Rx         06A5  8  2B 25 10 01 13 03 00 00 
   336)      4309.7  Rx         0001  2  01 FF 
   337)      4312.9  Rx         06A6  8  2B 25 10 01 13 03 00 00 
   338)      4314.7  Rx         0001  2  01 FF 
   339)      4316.6  Rx         06A7  8  2B 25 10 01 13 03 00 00 
   340)      4319.2  Rx         0001  2  01 FF 
   341)      4321.2  Rx         06A8  8  2B 25 10 01 13 03 00 00 
   342)      4323.3  Rx         0001  2  01 FF 
   343)      4325.2  Rx         06A9  8  2B 25 10 01 13 03 00 00 
   344)      4327.9  Rx         0001  2  01 FF 
   345)      4329.2  Rx         06AA  8  2B 25 10 01 13 03 00 00 
   346)      4331.3  Rx         0001  2  01 FF 
   347)      4333.1  Rx         06AB  8  2B 25 10 01 13 03 00 00 
   348)      4335.3  Rx         0001  2  01 FF 
   349)      4337.3  Rx         06AC  8  2B 25 10 01 13 03 00 00 
   350)      4339.3  Rx         0001  2  01 FF 
   351)      4341.2  Rx         06AD  8  2B 25 10 01 13 03 00 00 
   352)      4343.3  Rx         0001  2  01 FF 
   353)      4345.2  Rx         06AE  8  2B 25 10 01 13 03 00 00 
   354)      4347.3  Rx         0001  2  01 FF 
   355)      4349.2  Rx         06AF  8  2B 25 10 01 13 03 00 00 
   356)      4351.3  Rx         0001  2  01 FF 
   357)      4353.2  Rx         06B0  8  2B 25 10 01 13 03 00 00 
   358)      4355.3  Rx         0001  2  01 FF 
   359)      4357.2  Rx         06B1  8  2B 25 10 01 13 03 00 00 
   360)      4359.2  Rx         0001  2  01 FF 
   361)      4361.2  Rx         06B2  8  2B 25 10 01 13 03 00 00 
   362)      4363.3  Rx         0001  2  01 FF 
   363)      4365.2  Rx         06B3  8  2B 25 10 01 13 03 00 00 
   364)      4367.3  Rx         0001  2  01 FF 
   365)      4369.2  Rx         06B4  8  2B 25 10 01 13 03 00 00 
   366)      4371.2  Rx         0001  2  01 FF 
   367)      4373.2  Rx         06B5  8  2B 25 10 01 13 03 00 00 
   368)      4376.7  Rx         0001  2  01 FF 
   369)      4378.1  Rx         06B6  8  2B 25 10 01 13 03 00 00 
   370)      4380.2  Rx         0001  2  01 FF 
   371)      4382.2  Rx         06B7  8  2B 25 10 01 13 03 00 00 
   372)      4384.2  Rx         0001  2  01 FF 
   373)      4386.2  Rx         06B8  8  2B 25 10 01 13 03 00 00 
   374)      4388.3  Rx         0001  2  01 FF 
   375)      4390.2  Rx         06B9  8  2B 25 10 01 13 03 00 00 
   376)      4392.3  Rx         0001  2  01 FF 
   377)      4394.1  Rx         06BA  8  2B 25 10 01 13 03 00 00 
   378)      4396.3  Rx         0001  2  01 FF 
   379)      4398.2  Rx         06BB  8  2B 25 10 01 13 03 00 00 
   380)      4400.2  Rx         0001  2  01 FF 
   381)      4402.2  Rx         06BC  8  2B 25 10 01 13 03 00 00 
   382)      4404.2  Rx         0001  2  01 FF 
   383)      4406.2  Rx         06BD  8  2B 25 10 01 13 03 00 00 
   384)      4408.2  Rx         0001  2  01 FF 
   385)      4410.1  Rx         06BE  8  2B 25 10 01 13 03 00 00 
   386)      4412.2  Rx         0001  2  01 FF 
   387)      4414.1  Rx         06BF  8  2B 25 10 01 13 03 00 00 
   388)      4416.2  Rx         0001  2  01 FF 
   389)      4418.2  Rx         06C0  8  2B 25 10 01 13 03 00 00 
   390)      4420.4  Rx         0001  2  01 FF 
   391)      4422.4  Rx         06C1  8  2B 25 10 01 13 03 00 00 
   392)      4424.4  Rx         0001  2  01 FF 
   393)      4426.4  Rx         06C2  8  2B 25 10 01 13 03 00 00 
   394)      4428.4  Rx         0001  2  01 FF 
   395)      4430.4  Rx         06C3  8  2B 25 10 01 13 03 00 00 
   396)      4432.4  Rx         0001  2  01 FF 
   397)      4434.2  Rx         06C4  8  2B 25 10 01 13 03 00 00 
   398)      4435.4  Rx         0001  2  01 FF 
   399)      4437.3  Rx         06C5  8  2B 25 10 01 13 03 00 00 
   400)      4439.4  Rx         0001  2  01 FF 
   401)      4441.4  Rx         06C6  8  2B 25 10 01 13 03 00 00 
   402)      4443.3  Rx         0001  2  01 FF 
   403)      4445.4  Rx         06C7  8  2B 25 10 01 13 03 00 00 
   404)      4447.4  Rx         0001  2  01 FF 
   405)      4449.4  Rx         06C8  8  2B 25 10 01 13 03 00 00 
   406)      4451.4  Rx         0001  2  01 FF 
   407)      4453.4  Rx         06C9  8  2B 25 10 01 13 03 00 00 
   408)      4455.5  Rx         0001  2  01 FF 
   409)      4457.4  Rx         06CA  8  2B 25 10 01 13 03 00 00 
   410)      4459.4  Rx         0001  2  01 FF 
   411)      4461.4  Rx         06CB  8  2B 25 10 01 13 03 00 00 
   412)      4463.4  Rx         0001  2  01 FF 
   413)      4465.4  Rx         06CC  8  2B 25 10 01 13 03 00 00 
   414)      4467.4  Rx         0001  2  01 FF 
   415)      4469.4  Rx         06CD  8  2B 25 10 01 13 03 00 00 
   416)      4471.4  Rx         0001  2  01 FF 
   417)      4473.4  Rx         06CE  8  2B 25 10 01 13 03 00 00 
   418)      4475.4  Rx         0001  2  01 FF 
   419)      4477.4  Rx         06CF  8  2B 25 10 01 13 03 00 00 
   420)      4479.4  Rx         0001  2  01 FF 
   421)      4481.3  Rx         06D0  8  2B 25 10 01 13 03 00 00 
   422)      4483.4  Rx         0001  2  01 FF 
   423)      4485.3  Rx         06D1  8  2B 25 10 01 13 03 00 00 
   424)      4487.4  Rx         0001  2  01 FF 
   425)      4489.4  Rx         06D2  8  2B 25 10 01 13 03 00 00 
   426)      4491.4  Rx         0001  2  01 FF 
   427)      4493.3  Rx         06D3  8  2B 25 10 01 13 03 00 00 
   428)      4494.4  Rx         0001  2  01 FF 
   429)      4496.4  Rx         06D4  8  2B 25 10 01 13 03 00 00 
   430)      4498.4  Rx         0001  2  01 FF 
   431)      4501.4  Rx         06D5  8  2B 25 10 01 13 03 00 00 
   432)      4503.4  Rx         0001  2  01 FF 
   433)      4505.4  Rx         06D6  8  2B 25 10 01 13 03 00 00 
   434)      4507.4  Rx         0001  2  01 FF 
   435)      4509.4  Rx         06D7  8  2B 25 10 01 13 03 00 00 
   436)      4515.7  Rx         0001  2  01 FF 
   437)      4517.4  Rx         06D8  8  2B 25 10 01 13 03 00 00 
   438)      4519.5  Rx         0001  2  01 FF 
   439)      4520.6  Rx         06D9  8  2B 25 10 01 13 03 00 00 
   440)      4522.7  Rx         0001  2  01 FF 
   441)      4524.6  Rx         06DA  8  2B 25 10 01 13 03 00 00 
   442)      4526.8  Rx         0001  2  01 FF 
   443)      4528.6  Rx         06DB  8  2B 25 10 01 13 03 00 00 
   444)      4530.7  Rx         0001  2  01 FF 
   445)      4532.6  Rx         06DC  8  2B 25 10 01 13 03 00 00 
   446)      4534.5  Rx         0001  2  01 FF 
   447)      4536.6  Rx         06DD  8  2B 25 10 01 13 03 00 00 
   448)      4538.6  Rx         0001  2  01 FF 
   449)      4540.6  Rx         06DE  8  2B 25 10 01 13 03 00 00 
   450)      4542.6  Rx         0001  2  01 FF 
   451)      4544.5  Rx         06DF  8  2B 25 10 01 13 03 00 00 
   452)      4546.7  Rx         0001  2  01 FF 
   453)      4548.6  Rx         06E0  8  2B 25 10 01 13 03 00 00 
   454)      4550.6  Rx         0001  2  01 FF 
   455)      4552.5  Rx         06E1  8  2B 25 10 01 13 03 00 00 
   456)      4554.6  Rx         0001  2  01 FF 
   457)      4556.6  Rx         06E2  8  2B 25 10 01 13 03 00 00 
   458)      4558.6  Rx         0001  2  01 FF 
   459)      4561.9  Rx         06E3  8  2B 25 10 01 13 03 00 00 
   460)      4563.6  Rx         0001  2  01 FF 
   461)      4565.6  Rx         06E4  8  2B 25 10 01 13 03 00 00 
   462)      4567.6  Rx         0001  2  01 FF 
   463)      4569.6  Rx         06E5  8  2B 25 10 01 13 03 00 00 
   464)      4571.7  Rx         0001  2  01 FF 
   465)      4573.6  Rx         06E6  8  2B 25 10 01 13 03 00 00 
   466)      4575.6  Rx         0001  2  01 FF 
   467)      4577.7  Rx         06E7  8  2B 25 10 01 13 03 00 00 
   468)      4579.6  Rx         0001  2  01 FF 
   469)      4581.6  Rx         06E8  8  2B 25 10 01 13 03 00 00 
   470)      4583.7  Rx         0001  2  01 FF 
   471)      4585.6  Rx         06E9  8  2B 25 10 01 13 03 00 00 
   472)      4587.6  Rx         0001  2  01 FF 
   473)      4589.6  Rx         06EA  8  2B 25 10 01 13 03 00 00 
   474)      4591.7  Rx         0001  2  01 FF 
   475)      4593.5  Rx         06EB  8  2B 25 10 01 13 03 00 00 
   476)      4595.8  Rx         0001  2  01 FF 
   477)      4597.6  Rx         06EC  8  2B 25 10 01 13 03 00 00 
   478)      4599.5  Rx         0001  2  01 FF 
   479)      4601.5  Rx         06ED  8  2B 25 10 01 13 03 00 00 
   480)      4603.5  Rx         0001  2  01 FF 
   481)      4605.6  Rx         06EE  8  2B 25 10 01 13 03 00 00 
   482)      4607.7  Rx         0001  2  01 FF 
   483)      4609.6  Rx         06EF  8  2B 25 10 01 13 03 00 00 
   484)      4615.4  Rx         0001  2  01 FF 
   485)      4617.5  Rx         06F0  8  2B 25 10 01 13 03 00 00 
   486)      4618.7  Rx         0001  2  01 FF 
   487)      4620.8  Rx         06F1  8  2B 25 10 01 13 03 00 00 
   488)      4622.7  Rx         0001  2  01 FF 
   489)      4624.6  Rx         06F2  8  2B 25 10 01 13 03 00 00 
   490)      4626.7  Rx         0001  2  01 FF 
   491)      4628.7  Rx         06F3  8  2B 25 10 01 13 03 00 00 
   492)      4630.8  Rx         0001  2  01 FF 
   493)      4632.6  Rx         06F4  8  2B 25 10 01 13 03 00 00 
   494)      4634.7  Rx         0001  2  01 FF 
   495)      4636.6  Rx         06F5  8  2B 25 10 01 13 03 00 00 
   496)      4638.7  Rx         0001  2  01 FF 
   497)      4640.7  Rx         06F6  8  2B 25 10 01 13 03 00 00 
   498)      4642.8  Rx         0001  2  01 FF 
   499)      4644.6  Rx         06F7  8  2B 25 10 01 13 03 00 00 
   500)      4646.8  Rx         0001  2  01 FF 
   501)      4648.7  Rx         06F8  8  2B 25 10 01 13 03 00 00 
   502)      4650.8  Rx         0001  2  01 FF 
   503)      4652.8  Rx         06F9  8  2B 25 10 01 13 03 00 00 
   504)      4654.8  Rx         0001  2  01 FF 
   505)      4656.7  Rx         06FA  8  2B 25 10 01 13 03 00 00 
   506)      4658.8  Rx         0001  2  01 FF 
   507)      4660.7  Rx         06FB  8  2B 25 10 01 13 03 00 00 
   508)      4662.8  Rx         0001  2  01 FF 
   509)      4664.7  Rx         06FC  8  2B 25 10 01 13 03 00 00 
   510)      4666.8  Rx         0001  2  01 FF 
   511)      4668.7  Rx         06FD  8  2B 25 10 01 13 03 00 00 
   512)      4670.7  Rx         0001  2  01 FF 
   513)      4672.7  Rx         06FE  8  2B 25 10 01 13 03 00 00 
   514)      4674.8  Rx         0001  2  01 FF 
   515)      4676.7  Rx         06FF  8  2B 25 10 01 13 03 00 00 
   516)      4678.8  Rx         0001  2  01 FF 
   517)      4684.1  Rx         0001  2  01 FF 
   518)      4690.0  Rx         0001  2  01 FF 
   519)      4698.0  Rx         0001  2  01 FF 
   520)      4703.8  Rx         0001  2  01 FF 
   521)      4709.9  Rx         0001  2  01 FF 
   522)      4715.9  Rx         0001  2  01 FF 
   523)      4721.2  Rx         0001  2  01 FF 
   524)      4727.1  Rx         0001  2  01 FF 
   525)      4733.2  Rx         0001  2  01 FF 
   526)      4739.1  Rx         0001  2  01 FF 
   527)      4745.2  Rx         0001  2  01 FF 
   528)      4751.2  Rx         0001  2  01 FF 
   529)      4757.2  Rx         0001  2  01 FF 
   530)      4763.2  Rx         0001  2  01 FF 
   531)      4769.2  Rx         0001  2  01 FF 
   532)      4775.2  Rx         0001  2  01 FF 
   533)      4781.2  Rx         0001  2  01 FF 
   534)      4787.2  Rx         0001  2  01 FF 
   535)      4793.2  Rx         0001  2  01 FF 
   536)      4800.4  Rx         0001  2  01 FF 
   537)      4806.2  Rx         0001  2  01 FF 
   538)      4812.1  Rx         0001  2  01 FF 
   539)      4818.1  Rx         0001  2  01 FF 
   540)      4823.3  Rx         0001  2  01 FF 
   541)      4829.4  Rx         0001  2  01 FF 
   542)      4835.3  Rx         0001  2  01 FF 
   543)      4841.4  Rx         0001  2  01 FF 
   544)      4847.4  Rx         0001  2  01 FF 
   545)      4853.3  Rx         0001  2  01 FF 
   546)      4859.4  Rx         0001  2  01 FF 
   547)      4865.3  Rx         0001  2  01 FF 
   548)      4871.3  Rx         0001  2  01 FF 
   549)      4877.3  Rx         0001  2  01 FF 
   550)      4883.2  Rx         0001  2  01 FF 
   551)      4889.1  Rx         0001  2  01 FF 
   552)      4895.3  Rx         0001  2  01 FF 
   553)      4901.2  Rx         0001  2  01 FF 
   554)      4907.3  Rx         0001  2  01 FF 
   555)      4917.9  Rx         0001  2  01 FF 
   556)      4923.3  Rx         0001  2  01 FF 
   557)      4929.4  Rx         0001  2  01 FF 
   558)      4935.4  Rx         0001  2  01 FF 
   559)      4941.2  Rx         0001  2  01 FF 
   560)      4947.4  Rx         0001  2  01 FF 
   561)      4953.4  Rx         0001  2  01 FF 
   562)      4959.2  Rx         0001  2  01 FF 
   563)      4965.4  Rx         0001  2  01 FF 
   564)      4971.3  Rx         0001  2  01 FF 
   565)      4977.4  Rx         0001  2  01 FF 
   566)      4983.5  Rx         0001  2  01 FF 
   567)      4989.4  Rx         0001  2  01 FF 
   568)      4995.4  Rx         0001  2  01 FF 
   569)      5001.2  Rx         0001  2  01 FF 
   570)      5007.4  Rx         0001  2  01 FF 
   571)      5013.3  Rx         0001  2  01 FF 
   572)      5019.3  Rx         0001  2  01 FF 
   573)      5025.4  Rx         0001  2  01 FF 
   574)      5031.5  Rx         0001  2  01 FF 
   575)      5037.4  Rx         0001  2  01 FF 
   576)      5043.4  Rx         0001  2  01 FF 
   577)      5049.4  Rx         0001  2  01 FF 
   578)      5055.4  Rx         0001  2  01 FF 
   579)      5061.4  Rx         0001  2  01 FF 
   580)      5067.3  Rx         0001  2  01 FF 
   581)      5073.3  Rx         0001  2  01 FF 
   582)      5079.5  Rx         0001  2  01 FF 
   583)      5085.4  Rx         0001  2  01 FF 
   584)      5091.6  Rx         0001  2  01 FF 
   585)      5097.4  Rx         0001  2  01 FF 
   586)      5103.3  Rx         0001  2  01 FF 
   587)      5109.4  Rx         0001  2  01 FF 
   588)      5115.8  Rx         0001  2  01 FF 
   589)      5124.4  Rx         0001  2  01 FF 
   590)      5130.0  Rx         0001  2  01 FF 
   591)      5136.0  Rx         0001  2  01 FF 
   592)      5141.9  Rx         0001  2  01 FF 
   593)      5148.0  Rx         0001  2  01 FF 
   594)      5154.0  Rx         0001  2  01 FF 
   595)      5159.9  Rx         0001  2  01 FF 
   596)      5166.2  Rx         0001  2  01 FF 
   597)      5172.1  Rx         0001  2  01 FF 
   598)      5178.2  Rx         0001  2  01 FF 
   599)      5184.4  Rx         0001  2  01 FF 
   600)      5190.0  Rx         0001  2  01 FF 
   601)      5196.0  Rx         0001  2  01 FF 
   602)      5202.0  Rx         0001  2  01 FF 
   603)      5208.0  Rx         0001  2  01 FF 
   604)      5214.0  Rx         0001  2  01 FF 
   605)      5220.7  Rx         0001  2  01 FF 
   606)      5226.6  Rx         0001  2  01 FF 
   607)      5232.5  Rx         0001  2  01 FF 
   608)      5238.6  Rx         0001  2  01 FF 
   609)      5244.5  Rx         0001  2  01 FF 
   610)      5250.6  Rx         0001  2  01 FF 
   611)      5256.6  Rx         0001  2  01 FF 
   612)      5262.6  Rx         0001  2  01 FF 
   613)      5268.6  Rx         0001  2  01 FF 
   614)      5274.6  Rx         0001  2  01 FF 
   615)      5280.6  Rx         0001  2  01 FF 
   616)      5286.6  Rx         0001  2  01 FF 
   617)      5292.4  Rx         0001  2  01 FF 
   618)      5298.6  Rx         0001  2  01 FF 
   619)      5304.6  Rx         0001  2  01 FF 
   620)      5315.7  Rx         0001  2  01 FF 
   621)      5321.1  Rx         0001  2  01 FF 
   622)      5327.2  Rx         0001  2  01 FF 
   623)      5333.2  Rx         0001  2  01 FF 
   624)      5339.1  Rx         0001  2  01 FF 
   625)      5345.2  Rx         0001  2  01 FF 
   626)      5351.0  Rx         0001  2  01 FF 
   627)      5357.1  Rx         0001  2  01 FF 
   628)      5363.1  Rx         0001  2  01 FF 
   629)      5369.2  Rx         0001  2  01 FF 
   630)      5375.0  Rx         0001  2  01 FF 
   631)      5381.2  Rx         0001  2  01 FF 
   632)      5386.6  Rx         0001  2  01 FF 
   633)      5393.1  Rx         0001  2  01 FF 
   634)      5399.1  Rx         0001  2  01 FF 
   635)      5405.1  Rx         0001  2  01 FF 
   636)      5411.2  Rx         0001  2  01 FF 
   637)      5417.1  Rx         0001  2  01 FF 
   638)      5422.7  Rx         0001  2  01 FF 
   639)      5428.8  Rx         0001  2  01 FF 
   640)      5434.8  Rx         0001  2  01 FF 
   641)      5440.7  Rx         0001  2  01 FF 
   642)      5446.7  Rx         0001  2  01 FF 
   643)      5452.7  Rx         0001  2  01 FF 
   644)      5458.8  Rx         0001  2  01 FF 
   645)      5464.7  Rx         0001  2  01 FF 
   646)      5470.7  Rx         0001  2  01 FF 
   647)      5476.6  Rx         0001  2  01 FF 
   648)      5482.8  Rx         0001  2  01 FF 
   649)      5488.7  Rx         0001  2  01 FF 
   650)      5494.7  Rx         0001  2  01 FF 
   651)      5500.7  Rx         0001  2  01 FF 
   652)      5505.9  Rx         0001  2  01 FF 
   653)      5512.0  Rx         0001  2  01 FF 
   654)      5518.1  Rx         0001  2  01 FF 
   655)      5524.2  Rx         0001  2  01 FF 
   656)      5530.3  Rx         0001  2  01 FF 
   657)      5536.2  Rx         0001  2  01 FF 
   658)      5542.2  Rx         0001  2  01 FF 
   659)      5548.1  Rx         0001  2  01 FF 
   660)      5554.4  Rx         0001  2  01 FF 
   661)      5560.2  Rx         0001  2  01 FF 
   662)      5566.2  Rx         0001  2  01 FF 
   663)      5572.2  Rx         0001  2  01 FF 
   664)      5578.1  Rx         0001  2  01 FF 
   665)      5584.2  Rx         0001  2  01 FF 
   666)      5590.3  Rx         0001  2  01 FF 
   667)      5596.2  Rx         0001  2  01 FF 
   668)      5602.1  Rx         0001  2  01 FF 
   669)      5608.2  Rx         0001  2  01 FF 
   670)      5614.5  Rx         0001  2  01 FF 
   671)      5620.3  Rx         0001  2  01 FF 
   672)      5625.8  Rx         0001  2  01 FF 
   673)      5631.8  Rx         0001  2  01 FF 
   674)      5637.8  Rx         0001  2  01 FF 
   675)      5643.8  Rx         0001  2  01 FF 
   676)      5649.7  Rx         0001  2  01 FF 
   677)      5655.8  Rx         0001  2  01 FF 
   678)      5661.8  Rx         0001  2  01 FF 
   679)      5667.7  Rx         0001  2  01 FF 
   680)      5673.8  Rx         0001  2  01 FF 
   681)      5679.8  Rx         0001  2  01 FF 
   682)      5686.0  Rx         0001  2  01 FF 
   683)      5691.8  Rx         0001  2  01 FF 
   684)      5691.9  Warng  FFFFFFFF  4  00 00 00 04  BUSLIGHT 
   685)      5697.8  Rx         0001  2  01 FF 
   686)      5703.8  Rx         0001  2  01 FF 
   687)      5710.3  Rx         0001  2  01 FF 
   688)      5715.7  Rx         0001  2  01 FF 
   689)      5721.5  Rx         0001  2  01 FF 
   690)      5727.5  Rx         0001  2  01 FF 
   691)      5733.5  Rx         0001  2  01 FF 
   692)      5739.4  Rx         0001  2  01 FF 
   693)      5745.5  Rx         0001  2  01 FF 
   694)      5751.4  Rx         0001  2  01 FF 
   695)      5757.2  Rx         0001  2  01 FF 
   696)      5763.4  Rx         0001  2  01 FF 
   697)      5769.4  Rx         0001  2  01 FF 
   698)      5775.4  Rx         0001  2  01 FF 
   699)      5781.5  Rx         0001  2  01 FF 
   700)      5787.4  Rx         0001  2  01 FF 
   701)      5793.8  Rx         0001  2  01 FF 
   702)      5799.4  Rx         0001  2  01 FF 
   703)      5805.4  Rx         0001  2  01 FF 
   704)      5816.7  Rx         0001  2  01 FF 
   705)      5822.7  Rx         0001  2  01 FF 
   706)      5828.8  Rx         0001  2  01 FF 
   707)      5834.8  Rx         0001  2  01 FF 
   708)      5840.6  Rx         0001  2  01 FF 
   709)      5846.7  Rx         0001  2  01 FF 
   710)      5852.6  Rx         0001  2  01 FF 
   711)      5858.8  Rx         0001  2  01 FF 
   712)      5864.7  Rx         0001  2  01 FF 
   713)      5870.6  Rx         0001  2  01 FF 
   714)      5877.4  Rx         0001  2  01 FF 
   715)      5883.6  Rx         0001  2  01 FF 
   716)      5889.5  Rx         0001  2  01 FF 
   717)      5897.9  Rx         0001  2  01 FF 
   718)      5903.5  Rx         0001  2  01 FF 
   719)      5909.9  Rx         0001  2  01 FF 
   720)      5915.7  Rx         0001  2  01 FF 
   721)      5921.6  Rx         0001  2  01 FF 
   722)      5927.9  Rx         0001  2  01 FF 
   723)      5936.5  Rx         0001  2  01 FF 
   724)      5941.7  Rx         0001  2  01 FF 
   725)      5947.7  Rx         0001  2  01 FF 
   726)      5953.7  Rx         0001  2  01 FF 
   727)      5959.7  Rx         0001  2  01 FF 
   728)      5965.7  Rx         0001  2  01 FF 
   729)      5971.7  Rx         0001  2  01 FF 
   730)      5977.7  Rx         0001  2  01 FF 
   731)      5983.9  Rx         0001  2  01 FF 
   732)      5989.6  Rx         0001  2  01 FF 
   733)      5995.7  Rx         0001  2  01 FF 
   734)      6001.7  Rx         0001  2  01 FF 
   735)      6007.8  Rx         0001  2  01 FF 
   736)      6016.4  Rx         0001  2  01 FF 
   737)      6021.8  Rx         0001  2  01 FF 
   738)      6027.0  Rx         0001  2  01 FF 
   739)      6033.1  Rx         0001  2  01 FF 
   740)      6039.1  Rx         0001  2  01 FF 
   741)      6045.1  Rx         0001  2  01 FF 
   742)      6051.1  Rx         0001  2  01 FF 
   743)      6057.1  Rx         0001  2  01 FF 
   744)      6063.0  Rx         0001  2  01 FF 
   745)      6069.0  Rx         0001  2  01 FF 
   746)      6075.2  Rx         0001  2  01 FF 
   747)      6081.0  Rx         0001  2  01 FF 
   748)      6087.0  Rx         0001  2  01 FF 
   749)      6093.0  Rx         0001  2  01 FF 
   750)      6099.0  Rx         0001  2  01 FF 
   751)      6104.9  Rx         0001  2  01 FF 
   752)      6110.9  Rx         0001  2  01 FF 
   753)      6116.9  Rx         0001  2  01 FF 
   754)      6122.8  Rx         0001  2  01 FF 
   755)      6128.4  Rx         0001  2  01 FF 
   756)      6134.5  Rx         0001  2  01 FF 
   757)      6140.5  Rx         0001  2  01 FF 
   758)      6146.5  Rx         0001  2  01 FF 
   759)      6152.6  Rx         0001  2  01 FF 
   760)      6158.5  Rx         0001  2  01 FF 
   761)      6164.5  Rx         0001  2  01 FF 
   762)      6170.7  Rx         0001  2  01 FF 
   763)      6176.5  Rx         0001  2  01 FF 
   764)      6182.6  Rx         0001  2  01 FF 
   765)      6188.6  Rx         0001  2  01 FF 
   766)      6194.4  Rx         0001  2  01 FF 
   767)      6200.4  Rx         0001  2  01 FF 
   768)      6206.5  Rx         0001  2  01 FF 
   769)      6214.0  Rx         0001  2  01 FF 
   770)      6219.4  Rx         0001  2  01 FF 
   771)      6225.1  Rx         0001  2  01 FF 
   772)      6231.1  Rx         0001  2  01 FF 
   773)      6237.1  Rx         0001  2  01 FF 
   774)      6243.2  Rx         0001  2  01 FF 
   775)      6249.1  Rx         0001  2  01 FF 
   776)      6255.1  Rx         0001  2  01 FF 
   777)      6261.0  Rx         0001  2  01 FF 
   778)      6267.0  Rx         0001  2  01 FF 
   779)      6273.0  Rx         0001  2  01 FF 
   780)      6279.2  Rx         0001  2  01 FF 
   781)      6285.2  Rx         0001  2  01 FF 
   782)      6291.2  Rx         0001  2  01 FF 
   783)      6297.2  Rx         0001  2  01 FF 
   784)      6303.2  Rx         0001  2  01 FF 
   785)      6309.3  Rx         0001  2  01 FF 
   786)      6315.0  Rx         0001  2  01 FF 
   787)      6321.1  Rx         0001  2  01 FF 
   788)      6327.4  Rx         0001  2  01 FF 
   789)      6333.2  Rx         0001  2  01 FF 
   790)      6339.3  Rx         0001  2  01 FF 
   791)      6345.2  Rx         0001  2  01 FF 
   792)      6351.3  Rx         0001  2  01 FF 
   793)      6357.2  Rx         0001  2  01 FF 
   794)      6363.3  Rx         0001  2  01 FF 
   795)      6369.2  Rx         0001  2  01 FF 
   796)      6375.4  Rx         0001  2  01 FF 
   797)      6381.2  Rx         0001  2  01 FF 
   798)      6387.3  Rx         0001  2  01 FF 
   799)      6393.2  Rx         0001  2  01 FF 
   800)      6399.8  Rx         0001  2  01 FF 
   801)      6405.2  Rx         0001  2  01 FF 
   802)      6411.3  Rx         0001  2  01 FF 
   803)      6417.3  Rx         0001  2  01 FF 
   804)      6423.5  Rx         0001  2  01 FF 
   805)      6429.5  Rx         0001  2  01 FF 
   806)      6435.7  Rx         0001  2  01 FF 
   807)      6441.5  Rx         0001  2  01 FF 
   808)      6447.4  Rx         0001  2  01 FF 
   809)      6453.5  Rx         0001  2  01 FF 
   810)      6459.5  Rx         0001  2  01 FF 
   811)      6465.5  Rx         0001  2  01 FF 
   812)      6471.5  Rx         0001  2  01 FF 
   813)      6477.4  Rx         0001  2  01 FF 
   814)      6483.7  Rx         0001  2  01 FF 
   815)      6489.5  Rx         0001  2  01 FF 
   816)      6495.5  Rx         0001  2  01 FF 
   817)      6501.5  Rx         0001  2  01 FF 
   818)      6507.5  Rx         0001  2  01 FF 
   819)      6513.5  Rx         0001  2  01 FF 
   820)      6519.5  Rx         0001  2  01 FF 
   821)      6525.7  Rx         0001  2  01 FF 
   822)      6531.7  Rx         0001  2  01 FF 
   823)      6537.7  Rx         0001  2  01 FF 
   824)      6543.6  Rx         0001  2  01 FF 
   825)      6549.7  Rx         0001  2  01 FF 
   826)      6555.7  Rx         0001  2  01 FF 
   827)      6561.6  Rx         0001  2  01 FF 
   828)      6567.7  Rx         0001  2  01 FF 
   829)      6573.6  Rx         0001  2  01 FF 
   830)      6579.8  Rx         0001  2  01 FF 
   831)      6585.7  Rx         0001  2  01 FF 
   832)      6591.7  Rx         0001  2  01 FF 
   833)      6599.9  Rx         0001  2  01 FF 
   834)      6605.8  Rx         0001  2  01 FF 
   835)      6612.3  Rx         0001  2  01 FF 
   836)      6617.7  Rx         0001  2  01 FF 
   837)      6623.4  Rx         0001  2  01 FF 
   838)      6629.1  Rx         0001  2  01 FF 
   839)      6635.1  Rx         0001  2  01 FF 
   840)      6641.2  Rx         0001  2  01 FF 
   841)      6647.3  Rx         0001  2  01 FF 
   842)      6653.5  Rx         0001  2  01 FF 
   843)      6659.3  Rx         0001  2  01 FF 
   844)      6665.3  Rx         0001  2  01 FF 
   845)      6671.3  Rx         0001  2  01 FF 
   846)      6677.3  Rx         0001  2  01 FF 
   847)      6683.1  Rx         0001  2  01 FF 
   848)      6689.2  Rx         0001  2  01 FF 
   849)      6695.1  Rx         0001  2  01 FF 
   850)      6701.1  Rx         0001  2  01 FF 
   851)      6707.2  Rx         0001  2  01 FF 
   852)      6713.2  Rx         0001  2  01 FF 
   853)      6719.2  Rx         0001  2  01 FF 
   854)      6724.8  Rx         0001  2  01 FF 
   855)      6731.1  Rx         0001  2  01 FF 
   856)      6736.7  Rx         0001  2  01 FF 
   857)      6742.7  Rx         0001  2  01 FF 
   858)      6748.8  Rx         0001  2  01 FF 
   859)      6754.8  Rx         0001  2  01 FF 
   860)      6760.7  Rx         0001  2  01 FF 
   861)      6766.8  Rx         0001  2  01 FF 
   862)      6772.7  Rx         0001  2  01 FF 
   863)      6778.9  Rx         0001  2  01 FF 
   864)      6785.5  Rx         0001  2  01 FF 
   865)      6791.4  Rx         0001  2  01 FF 
   866)      6797.3  Rx         0001  2  01 FF 
   867)      6803.3  Rx         0001  2  01 FF 
   868)      6809.3  Rx         0001  2  01 FF 
   869)      6815.6  Rx         0001  2  01 FF 
   870)      6821.5  Rx         0001  2  01 FF 
   871)      6826.9  Rx         0001  2  01 FF 
   872)      6833.0  Rx         0001  2  01 FF 
   873)      6839.0  Rx         0001  2  01 FF 
   874)      6845.0  Rx         0001  2  01 FF 
   875)      6850.9  Rx         0001  2  01 FF 
   876)      6856.9  Rx         0001  2  01 FF 
   877)      6863.0  Rx         0001  2  01 FF 
   878)      6869.0  Rx         0001  2  01 FF 
   879)      6875.0  Rx         0001  2  01 FF 
   880)      6881.0  Rx         0001  2  01 FF 
   881)      6887.1  Rx         0001  2  01 FF 
   882)      6893.0  Rx         0001  2  01 FF 
   883)      6899.0  Rx         0001  2  01 FF 
   884)      6905.0  Rx         0001  2  01 FF 
   885)      6911.0  Rx         0001  2  01 FF 
   886)      6917.0  Rx         0001  2  01 FF 
   887)      6923.0  Rx         0001  2  01 FF 
   888)      6928.3  Rx         0001  2  01 FF 
   889)      6934.4  Rx         0001  2  01 FF 
   890)      6940.3  Rx         0001  2  01 FF 
   891)      6946.2  Rx         0001  2  01 FF 
   892)      6952.3  Rx         0001  2  01 FF 
   893)      6958.2  Rx         0001  2  01 FF 
   894)      6964.3  Rx         0001  2  01 FF 
   895)      6970.2  Rx         0001  2  01 FF 
   896)      6976.3  Rx         0001  2  01 FF 
   897)      6982.4  Rx         0001  2  01 FF 
   898)      6988.3  Rx         0001  2  01 FF 
   899)      6994.2  Rx         0001  2  01 FF 
   900)      7000.2  Rx         0001  2  01 FF 
   901)      7006.3  Rx         0001  2  01 FF 
   902)      7014.7  Rx         0001  2  01 FF 
   903)      7020.4  Rx         0001  2  01 FF 
   904)      7025.9  Rx         0001  2  01 FF 
   905)      7031.9  Rx         0001  2  01 FF 
   906)      7037.9  Rx         0001  2  01 FF 
   907)      7043.8  Rx         0001  2  01 FF 
   908)      7049.9  Rx         0001  2  01 FF 
   909)      7055.9  Rx         0001  2  01 FF 
   910)      7061.9  Rx         0001  2  01 FF 
   911)      7068.0  Rx         0001  2  01 FF 
   912)      7073.9  Rx         0001  2  01 FF 
   913)      7080.0  Rx         0001  2  01 FF 
   914)      7085.8  Rx         0001  2  01 FF 
   915)      7091.9  Rx         0001  2  01 FF 
   916)      7097.8  Rx         0001  2  01 FF 
   917)      7103.9  Rx         0001  2  01 FF 
   918)      7114.2  Rx         0001  2  01 FF 
   919)      7119.9  Rx         0001  2  01 FF 
   920)      7125.6  Rx         0001  2  01 FF 
   921)      7131.3  Rx         0001  2  01 FF 
   922)      7137.4  Rx         0001  2  01 FF 
   923)      7143.3  Rx         0001  2  01 FF 
   924)      7149.4  Rx         0001  2  01 FF 
   925)      7155.4  Rx         0001  2  01 FF 
   926)      7161.4  Rx         0001  2  01 FF 
   927)      7167.3  Rx         0001  2  01 FF 
   928)      7173.3  Rx         0001  2  01 FF 
   929)      7179.3  Rx         0001  2  01 FF 
   930)      7186.2  Rx         0001  2  01 FF 
   931)      7192.4  Rx         0001  2  01 FF 
   932)      7199.9  Rx         0001  2  01 FF 
   933)      7205.4  Rx         0001  2  01 FF 
   934)      7211.4  Rx         0001  2  01 FF 
   935)      7217.5  Rx         0001  2  01 FF 
   936)      7223.5  Rx         0001  2  01 FF 
   937)      7228.8  Rx         0001  2  01 FF 
   938)      7234.9  Rx         0001  2  01 FF 
   939)      7240.8  Rx         0001  2  01 FF 
   940)      7246.8  Rx         0001  2  01 FF 
   941)      7252.8  Rx         0001  2  01 FF 
   942)      7258.8  Rx         0001  2  01 FF 
   943)      7264.8  Rx         0001  2  01 FF 
   944)      7270.8  Rx         0001  2  01 FF 
   945)      7276.7  Rx         0001  2  01 FF 
   946)      7283.1  Rx         0001  2  01 FF 
   947)      7288.7  Rx         0001  2  01 FF 
   948)      7297.1  Rx         0001  2  01 FF 
   949)      7302.8  Rx         0001  2  01 FF 
   950)      7308.8  Rx         0001  2  01 FF 
   951)      7314.8  Rx         0001  2  01 FF 
   952)      7320.8  Rx         0001  2  01 FF 
   953)      7327.3  Rx         0001  2  01 FF 
   954)      7333.4  Rx         0001  2  01 FF 
   955)      7339.6  Rx         0001  2  01 FF 
   956)      7345.4  Rx         0001  2  01 FF 
   957)      7351.4  Rx         0001  2  01 FF 
   958)      7357.3  Rx         0001  2  01 FF 
   959)      7363.5  Rx         0001  2  01 FF 
   960)      7369.4  Rx         0001  2  01 FF 
   961)      7375.4  Rx         0001  2  01 FF 
   962)      7381.4  Rx         0001  2  01 FF 
   963)      7387.4  Rx         0001  2  01 FF 
   964)      7393.3  Rx         0001  2  01 FF 
   965)      7399.4  Rx         0001  2  01 FF 
   966)      7405.3  Rx         0001  2  01 FF 
   967)      7410.9  Rx         0001  2  01 FF 
   968)      7417.5  Rx         0001  2  01 FF 
   969)      7423.5  Rx         0001  2  01 FF 
   970)      7428.7  Rx         0001  2  01 FF 
   971)      7434.8  Rx         0001  2  01 FF 
   972)      7440.7  Rx         0001  2  01 FF 
   973)      7446.7  Rx         0001  2  01 FF 
   974)      7452.7  Rx         0001  2  01 FF 
   975)      7458.7  Rx         0001  2  01 FF 
   976)      7464.7  Rx         0001  2  01 FF 
   977)      7470.7  Rx         0001  2  01 FF 
   978)      7476.7  Rx         0001  2  01 FF 
   979)      7482.8  Rx         0001  2  01 FF 
   980)      7488.6  Rx         0001  2  01 FF 
   981)      7494.7  Rx         0001  2  01 FF 
   982)      7500.7  Rx         0001  2  01 FF 
   983)      7506.7  Rx         0001  2  01 FF 
   984)      7515.3  Rx         0001  2  01 FF 
   985)      7520.7  Rx         0001  2  01 FF 
   986)      7526.7  Rx         0001  2  01 FF 
   987)      7532.9  Rx         0001  2  01 FF 
   988)      7538.8  Rx         0001  2  01 FF 
   989)      7544.8  Rx         0001  2  01 FF 
   990)      7550.9  Rx         0001  2  01 FF 
   991)      7556.8  Rx         0001  2  01 FF 
   992)      7562.7  Rx         0001  2  01 FF 
   993)      7568.8  Rx         0001  2  01 FF 
   994)      7575.0  Rx         0001  2  01 FF 
   995)      7580.8  Rx         0001  2  01 FF 
   996)      7586.9  Rx         0001  2  01 FF 
   997)      7592.8  Rx         0001  2  01 FF 
   998)      7598.8  Rx         0001  2  01 FF 
   999)      7604.8  Rx         0001  2  01 FF 
  1000)      7610.9  Rx         0001  2  01 FF 
  1001)      7616.8  Rx         0001  2  01 FF 
  1002)      7623.0  Rx         0001  2  01 FF 
  1003)      7628.9  Rx         0001  2  01 FF 
  1004)      7634.9  Rx         0001  2  01 FF 
  1005)      7640.9  Rx         0001  2  01 FF 
  1006)      7646.9  Rx         0001  2  01 FF 
  1007)      7652.9  Rx         0001  2  01 FF 
  1008)      7658.9  Rx         0001  2  01 FF 
  1009)      7664.9  Rx         0001  2  01 FF 
  1010)      7670.9  Rx         0001  2  01 FF 
  1011)      7677.2  Rx         0001  2  01 FF 
  1012)      7683.0  Rx         0001  2  01 FF 
  1013)      7689.1  Rx         0001  2  01 FF 
  1014)      7694.9  Rx         0001  2  01 FF 
  1015)      7700.9  Rx         0001  2  01 FF 
  1016)      7706.9  Rx         0001  2  01 FF 
  1017)      7714.3  Rx         0001  2  01 FF 
  1018)      7719.8  Rx         0001  2  01 FF 
  1019)      7725.5  Rx         0001  2  01 FF 
  1020)      7731.8  Rx         0001  2  01 FF 
  1021)      7737.6  Rx         0001  2  01 FF 
  1022)      7743.5  Rx         0001  2  01 FF 
  1023)      7749.5  Rx         0001  2  01 FF 
  1024)      7755.5  Rx         0001  2  01 FF 
  1025)      7761.5  Rx         0001  2  01 FF 
  1026)      7767.5  Rx         0001  2  01 FF 
  1027)      7773.5  Rx         0001  2  01 FF 
  1028)      7779.6  Rx         0001  2  01 FF 
  1029)      7785.4  Rx         0001  2  01 FF 
  1030)      7791.5  Rx         0001  2  01 FF 
  1031)      7800.7  Rx         0001  2  01 FF 
  1032)      7806.5  Rx         0001  2  01 FF 
  1033)      7812.0  Rx         0001  2  01 FF 
  1034)      7818.1  Rx         0001  2  01 FF 
  1035)      7824.1  Rx         0001  2  01 FF 
  1036)      7830.3  Rx         0001  2  01 FF 
  1037)      7836.2  Rx         0001  2  01 FF 
  1038)      7842.1  Rx         0001  2  01 FF 
  1039)      7848.2  Rx         0001  2  01 FF 
  1040)      7854.1  Rx         0001  2  01 FF 
  1041)      7860.1  Rx         0001  2  01 FF 
  1042)      7866.1  Rx         0001  2  01 FF 
  1043)      7872.1  Rx         0001  2  01 FF 
  1044)      7878.2  Rx         0001  2  01 FF 
  1045)      7884.1  Rx         0001  2  01 FF 
  1046)      7890.3  Rx         0001  2  01 FF 
  1047)      7899.7  Rx         0001  2  01 FF 
  1048)      7905.2  Rx         0001  2  01 FF 
  1049)      7911.2  Rx         0001  2  01 FF 
  1050)      7917.0  Rx         0001  2  01 FF 
  1051)      7923.2  Rx         0001  2  01 FF 
  1052)      7929.4  Rx         0001  2  01 FF 
  1053)      7936.0  Rx         0001  2  01 FF 
  1054)      7941.4  Rx         0001  2  01 FF 
  1055)      7947.3  Rx         0001  2  01 FF 
  1056)      7953.3  Rx         0001  2  01 FF 
  1057)      7959.4  Rx         0001  2  01 FF 
  1058)      7965.3  Rx         0001  2  01 FF 
  1059)      7971.4  Rx         0001  2  01 FF 
  1060)      7977.4  Rx         0001  2  01 FF 
  1061)      7983.5  Rx         0001  2  01 FF 
  1062)      7989.4  Rx         0001  2  01 FF 
  1063)      7995.3  Rx         0001  2  01 FF 
  1064)      8001.3  Rx         0001  2  01 FF 
  1065)      8007.3  Rx         0001  2  01 FF 
  1066)      8017.7  Rx         0001  2  01 FF 
  1067)      8023.3  Rx         0001  2  01 FF 
  1068)      8029.8  Rx         0001  2  01 FF 
  1069)      8035.3  Rx         0001  2  01 FF 
  1070)      8041.3  Rx         0001  2  01 FF 
  1071)      8047.4  Rx         0001  2  01 FF 
  1072)      8053.4  Rx         0001  2  01 FF 
  1073)      8059.4  Rx         0001  2  01 FF 
  1074)      8065.4  Rx         0001  2  01 FF 
  1075)      8071.4  Rx         0001  2  01 FF 
  1076)      8077.4  Rx         0001  2  01 FF 
  1077)      8083.4  Rx         0001  2  01 FF 
  1078)      8089.3  Rx         0001  2  01 FF 
  1079)      8098.6  Rx         0001  2  01 FF 
  1080)      8104.5  Rx         0001  2  01 FF 
  1081)      8110.4  Rx         0001  2  01 FF 
  1082)      8116.4  Rx         0001  2  01 FF 
  1083)      8122.5  Rx         0001  2  01 FF 
  1084)      8128.5  Rx         0001  2  01 FF 
  1085)      8134.0  Rx         0001  2  01 FF 
  1086)      8140.6  Rx         0001  2  01 FF 
  1087)      8146.7  Rx         0001  2  01 FF 
  1088)      8152.6  Rx         0001  2  01 FF 
  1089)      8158.5  Rx         0001  2  01 FF 
  1090)      8164.5  Rx         0001  2  01 FF 
  1091)      8170.5  Rx         0001  2  01 FF 
  1092)      8176.8  Rx         0001  2  01 FF 
  1093)      8182.5  Rx         0001  2  01 FF 
  1094)      8188.7  Rx         0001  2  01 FF 
  1095)      8194.5  Rx         0001  2  01 FF 
  1096)      8200.6  Rx         0001  2  01 FF 
  1097)      8206.6  Rx         0001  2  01 FF 
  1098)      8212.7  Rx         0001  2  01 FF 
  1099)      8218.7  Rx         0001  2  01 FF 
  1100)      8224.6  Rx         0001  2  01 FF 
  1101)      8229.8  Rx         0001  2  01 FF 
  1102)      8235.8  Rx         0001  2  01 FF 
  1103)      8241.7  Rx         0001  2  01 FF 
  1104)      8247.7  Rx         0001  2  01 FF 
  1105)      8253.7  Rx         0001  2  01 FF 
  1106)      8259.7  Rx         0001  2  01 FF 
  1107)      8265.7  Rx         0001  2  01 FF 
  1108)      8271.7  Rx         0001  2  01 FF 
  1109)      8278.0  Rx         0001  2  01 FF 
  1110)      8283.8  Rx         0001  2  01 FF 
  1111)      8289.8  Rx         0001  2  01 FF 
  1112)      8295.7  Rx         0001  2  01 FF 
  1113)      8301.8  Rx         0001  2  01 FF 
  1114)      8307.7  Rx         0001  2  01 FF 
  1115)      8313.7  Rx         0001  2  01 FF 
  1116)      8319.8  Rx         0001  2  01 FF 
  1117)      8326.0  Rx         0001  2  01 FF 
  1118)      8332.1  Rx         0001  2  01 FF 
  1119)      8338.0  Rx         0001  2  01 FF 
  1120)      8344.2  Rx         0001  2  01 FF 
  1121)      8350.0  Rx         0001  2  01 FF 
  1122)      8356.1  Rx         0001  2  01 FF 
  1123)      8362.1  Rx         0001  2  01 FF 
  1124)      8368.0  Rx         0001  2  01 FF 
  1125)      8374.1  Rx         0001  2  01 FF 
  1126)      8382.9  Rx         0001  2  01 FF 
  1127)      8391.0  Rx         0001  2  01 FF 
  1128)      8398.4  Rx         0001  2  01 FF 
  1129)      8404.5  Rx         0001  2  01 FF 
  1130)      8410.2  Rx         0001  2  01 FF 
  1131)      8416.2  Rx         0001  2  01 FF 
  1132)      8422.3  Rx         0001  2  01 FF 
  1133)      8427.9  Rx         0001  2  01 FF 
  1134)      8434.2  Rx         0001  2  01 FF 
  1135)      8439.9  Rx         0001  2  01 FF 
  1136)      8445.8  Rx         0001  2  01 FF 
  1137)      8451.8  Rx         0001  2  01 FF 
  1138)      8457.8  Rx         0001  2  01 FF 
  1139)      8463.8  Rx         0001  2  01 FF 
  1140)      8469.8  Rx         0001  2  01 FF 
  1141)      8475.9  Rx         0001  2  01 FF 
  1142)      8481.9  Rx         0001  2  01 FF 
  1143)      8487.8  Rx         0001  2  01 FF 
  1144)      8493.7  Rx         0001  2  01 FF 
  1145)      8499.8  Rx         0001  2  01 FF 
  1146)      8505.7  Rx         0001  2  01 FF 
  1147)      8511.8  Rx         0001  2  01 FF 
  1148)      8517.8  Rx         0001  2  01 FF 
  1149)      8523.7  Rx         0001  2  01 FF 
  1150)      8529.3  Rx         0001  2  01 FF 
  1151)      8535.4  Rx         0001  2  01 FF 
  1152)      8541.4  Rx         0001  2  01 FF 
  1153)      8547.4  Rx         0001  2  01 FF 
  1154)      8553.3  Rx         0001  2  01 FF 
  1155)      8560.0  Rx         0001  2  01 FF 
  1156)      8565.3  Rx         0001  2  01 FF 
  1157)      8571.3  Rx         0001  2  01 FF 
  1158)      8577.3  Rx         0001  2  01 FF 
  1159)      8583.3  Rx         0001  2  01 FF 
  1160)      8589.3  Rx         0001  2  01 FF 
  1161)      8595.3  Rx         0001  2  01 FF 
  1162)      8601.3  Rx         0001  2  01 FF 
  1163)      8607.4  Rx         0001  2  01 FF 
  1164)      8613.3  Rx         0001  2  01 FF 
  1165)      8619.3  Rx         0001  2  01 FF 
  1166)      8625.4  Rx         0001  2  01 FF 
  1167)      8664.8  Rx         0001  2  14 00 
  1168)      8695.5  Rx         0001  2  14 01 
  1169)      8699.8  Rx         0002  6  14 01 81 16 92 AE 
  1170)      8726.8  Rx         0001  2  14 05 
  1171)      8757.6  Rx         0001  2  14 0A 
  1172)      8792.7  Rx         0001  2  14 69 
  1173)      9044.6  Rx         0001  7  11 FF 00 00 00 00 00 
  1174)      9044.6  Rx         0001  7  11 01 81 16 92 AE 01 
  1175)      9045.5  Rx         0002  6  11 01 81 16 92 AE 
  1176)      9047.9  Rx         0001  7  17 01 58 9B 0E 5E 00 
  1177)      9048.8  Rx         0002  8  17 01 E0 79 FC 0C 02 0A 
  1178)      9050.1  Rx         0001  7  17 01 B7 16 E3 5A 01 
  1179)      9051.0  Rx         0002  8  17 01 D7 82 79 2F 02 0A 
  1180)      9136.7  Rx         0001  7  11 FF 00 00 00 00 00 
  1181)      9203.6  Rx         0001  7  11 FF 00 00 00 00 00 
  1182)      9203.7  Rx         0001  7  11 01 81 16 92 AE 01 
  1183)      9204.5  Rx         0002  6  11 01 81 16 92 AE 
  1184)      9207.8  Rx         0001  6  0D 01 00 E0 00 00 
  1185)      9208.4  Rx         0002  2  0D 01 
  1186)      9209.7  Rx         0001  8  05 01 01 00 00 00 01 00 
  1187)      9209.9  Rx         0001  8  05 01 00 00 01 00 00 00 
  1188)      9210.0  Rx         0001  8  05 01 0A 02 00 00 00 00 
  1189)      9210.2  Rx         0001  8  05 01 00 00 01 00 00 00 
  1190)      9210.4  Rx         0001  8  05 01 00 00 00 00 02 00 
  1191)      9210.5  Rx         0001  8  05 01 00 00 F4 01 00 00 
  1192)      9210.6  Rx         0001  8  05 01 00 00 00 00 07 00 
  1193)      9210.6  Rx         0001  8  05 01 00 00 00 00 00 00 
  1194)      9210.6  Rx         0001  8  05 01 00 00 00 00 00 00 
  1195)      9210.7  Rx         0001  8  05 01 00 00 00 00 00 00 
  1196)      9210.7  Rx         0001  8  05 01 00 00 00 00 00 00 
  1197)      9212.9  Rx         0001  2  02 01 
  1198)      9213.4  Rx         0002  6  02 01 00 42 00 00 
  1199)      9214.5  Rx         0001  8  05 01 00 00 00 00 00 00 
  1200)      9214.5  Rx         0001  8  05 01 00 00 00 00 00 00 
  1201)      9214.6  Rx         0001  8  05 01 00 00 01 00 00 00 
  1202)      9214.7  Rx         0001  8  05 01 00 00 01 00 0B 1F 
  1203)      9214.7  Rx         0001  8  05 01 7A 3A 1D 2D 94 7E 
  1204)      9214.7  Rx         0001  8  05 01 7F B6 49 8F 72 0D 
  1205)      9214.8  Rx         0001  8  05 01 F0 65 55 D2 B2 0E 
  1206)      9214.8  Rx         0001  8  05 01 AF 40 06 FC B8 D2 
  1207)      9214.9  Rx         0001  8  05 01 D9 34 6E 20 83 2F 
  1208)      9214.9  Rx         0001  8  05 01 A2 92 A7 95 DC 27 
  1209)      9214.9  Rx         0001  8  05 01 29 D8 DA E0 46 36 
  1210)      9216.4  Rx         0001  2  02 01 
  1211)      9217.8  Rx         0002  6  02 01 00 42 00 00 
  1212)      9218.9  Rx         0001  8  05 01 26 FF 18 00 F1 B7 
  1213)      9218.9  Rx         0001  8  05 01 F1 A8 F1 D9 C4 BF 
  1214)      9219.0  Rx         0001  8  05 01 0E 00 C4 CF 14 00 
  1215)      9219.1  Rx         0001  8  05 01 C4 DF 12 00 C4 EF 
  1216)      9219.1  Rx         0001  8  05 01 16 00 E0 0B C4 BF 
  1217)      9219.2  Rx         0001  8  05 01 10 00 F0 82 3D 06 
  1218)      9219.2  Rx         0001  8  05 01 E6 FB 1E 00 C4 BF 
  1219)      9219.2  Rx         0001  8  05 01 10 00 EA 00 32 04 
  1220)      9219.3  Rx         0001  8  05 01 47 F6 3A 00 8D 03 
  1221)      9219.3  Rx         0001  8  05 01 47 F6 3B 00 FD 06 
  1222)      9219.3  Rx         0001  8  05 01 E6 FB 22 00 C4 BF 
  1223)      9221.5  Rx         0001  2  02 01 
  1224)      9222.1  Rx         0002  6  02 01 00 42 00 00 
  1225)      9223.2  Rx         0001  8  05 01 10 00 EA 00 32 04 
  1226)      9223.3  Rx         0001  8  05 01 C0 6B 5C 2B F4 9B 
  1227)      9223.3  Rx         0001  8  05 01 00 56 3D 06 E6 FB 
  1228)      9223.4  Rx         0001  8  05 01 21 00 C4 BF 10 00 
  1229)      9223.4  Rx         0001  8  05 01 EA 00 32 04 49 A0 
  1230)      9223.4  Rx         0001  8  05 01 2D 02 49 A1 3D 14 
  1231)      9223.5  Rx         0001  8  05 01 49 D0 2D 02 49 D1 
  1232)      9223.5  Rx         0001  8  05 01 3D 10 D4 BF 14 00 
  1233)      9223.5  Rx         0001  8  05 01 D4 CF 0E 00 DA E0 
  1234)      9223.6  Rx         0001  8  05 01 60 38 ED 09 D4 BF 
  1235)      9223.6  Rx         0001  8  05 01 16 00 D4 CF 12 00 
  1236)      9225.9  Rx         0001  2  02 01 
  1237)      9226.5  Rx         0002  6  02 01 00 42 00 00 
  1238)      9227.6  Rx         0001  8  05 01 DA E0 60 38 ED 02 
  1239)      9227.6  Rx         0001  8  05 01 49 B2 9D 06 E6 FB 
  1240)      9227.7  Rx         0001  8  05 01 1F 00 C4 BF 10 00 
  1241)      9227.7  Rx         0001  8  05 01 EA 00 32 04 C0 BB 
  1242)      9227.8  Rx         0001  8  05 01 02 FB 56 5B 46 FB 
  1243)      9227.9  Rx         0001  8  05 01 80 00 FD 06 E6 FB 
  1244)      9228.0  Rx         0001  8  05 01 2A 00 C4 BF 10 00 
  1245)      9228.0  Rx         0001  8  05 01 EA 00 32 04 F2 FB 
  1246)      9228.0  Rx         0001  8  05 01 54 5B 46 FB 80 00 
  1247)      9228.1  Rx         0001  8  05 01 8D 06 E6 FB 2B 00 
  1248)      9228.1  Rx         0001  8  05 01 C4 BF 10 00 EA 00 
  1249)      9229.9  Rx         0001  2  02 01 
  1250)      9230.9  Rx         0002  6  02 01 00 42 00 00 
  1251)      9231.9  Rx         0001  8  05 01 32 04 DA E0 B8 36 
  1252)      9232.0  Rx         0001  8  05 01 F1 C5 09 51 F1 85 
  1253)      9232.0  Rx         0001  8  05 01 E1 34 E1 06 DA E0 
  1254)      9232.0  Rx         0001  8  05 01 32 2D F0 72 24 8F 
  1255)      9232.1  Rx         0001  8  05 01 56 5B E1 19 E1 34 
  1256)      9232.1  Rx         0001  8  05 01 F1 58 DA E0 D4 36 
  1257)      9232.2  Rx         0001  8  05 01 09 91 41 9B 8D F9 
  1258)      9232.2  Rx         0001  8  05 01 DA E0 6C 2E B9 48 
  1259)      9232.2  Rx         0001  8  05 01 DA E0 BA 38 C0 CD 
  1260)      9232.3  Rx         0001  8  05 01 5C 8D 66 FC FF F8 
  1261)      9232.3  Rx         0001  8  05 01 70 CD B8 CB DA E0 
  1262)      9234.0  Rx         0001  2  02 01 
  1263)      9235.2  Rx         0002  6  02 01 00 42 00 00 
  1264)      9236.2  Rx         0001  8  05 01 BA 38 66 FC FF 9F 
  1265)      9236.3  Rx         0001  8  05 01 76 FC 00 40 B8 CB 
  1266)      9236.3  Rx         0001  8  05 01 A9 98 C0 9B 5C 2B 
  1267)      9236.3  Rx         0001  8  05 01 E0 09 E0 02 E4 EB 
  1268)      9236.6  Rx         0001  8  05 01 00 54 DA E0 BA 38 
  1269)      9236.7  Rx         0001  8  05 01 4A F5 FC 0B B8 CB 
  1270)      9236.7  Rx         0001  8  05 01 DA E0 BA 38 4A F6 
  1271)      9236.8  Rx         0001  8  05 01 FC 8C B8 CB A9 98 
  1272)      9236.8  Rx         0001  8  05 01 C0 9B 5C 2B C0 E8 
  1273)      9236.9  Rx         0001  8  05 01 5C 58 E4 EB 02 54 
  1274)      9236.9  Rx         0001  8  05 01 F0 48 06 F4 1C 10 
  1275)      9239.0  Rx         0001  2  02 01 
  1276)      9239.6  Rx         0002  6  02 01 00 42 00 00 
  1277)      9240.7  Rx         0001  8  05 01 16 F2 20 00 F0 B4 
  1278)      9240.7  Rx         0001  8  05 01 7C EB 5C 22 70 2B 
  1279)      9240.8  Rx         0001  8  05 01 66 F4 FF 3F F0 B8 
  1280)      9240.8  Rx         0001  8  05 01 DA E0 A6 38 B8 BF 
  1281)      9240.9  Rx         0001  8  05 01 C4 CF 06 00 F0 08 
  1282)      9240.9  Rx         0001  8  05 01 E0 0A 06 F0 1A 10 
  1283)      9240.9  Rx         0001  8  05 01 16 FA 20 00 F0 B0 
  1284)      9241.0  Rx         0001  8  05 01 7C EB 5C 2A 70 AB 
  1285)      9241.0  Rx         0001  8  05 01 66 F0 FF 3F C0 E7 
  1286)      9241.1  Rx         0001  8  05 01 66 F7 FF 00 C0 6E 
  1287)      9241.1  Rx         0001  8  05 01 5C 8E 70 E7 F0 B8 
  1288)      9243.0  Rx         0001  2  02 01 
  1289)      9243.9  Rx         0002  6  02 01 00 42 00 00 
  1290)      9245.1  Rx         0001  8  05 01 DA E0 7E 38 C4 BF 
  1291)      9245.2  Rx         0001  8  05 01 04 00 C4 CF 0C 00 
  1292)      9245.3  Rx         0001  8  05 01 F0 B8 DA E0 92 38 
  1293)      9245.3  Rx         0001  8  05 01 C4 BF 02 00 C4 CF 
  1294)      9245.4  Rx         0001  8  05 01 0A 00 F0 18 F0 B9 
  1295)      9245.4  Rx         0001  8  05 01 06 F1 02 10 16 FB 
  1296)      9245.5  Rx         0001  8  05 01 20 00 F0 C1 7C EC 
  1297)      9245.5  Rx         0001  8  05 01 5C 2B 70 BC C4 BF 
  1298)      9245.5  Rx         0001  8  05 01 08 00 66 F1 FF 3F 
  1299)      9245.6  Rx         0001  8  05 01 F0 D8 F0 B9 DA E0 
  1300)      9245.7  Rx         0001  8  05 01 B6 35 70 CB 66 FD 
  1301)      9247.0  Rx         0001  2  02 01 
  1302)      9248.3  Rx         0002  6  02 01 00 42 00 00 
  1303)      9249.4  Rx         0001  8  05 01 FF 3F 49 A0 EA 30 
  1304)      9249.5  Rx         0001  8  05 01 7A 03 E6 FB FF 0F 
  1305)      9249.5  Rx         0001  8  05 01 DC 42 B8 B4 E6 FB 
  1306)      9249.5  Rx         0001  8  05 01 A0 00 A8 4F D4 5F 
  1307)      9249.6  Rx         0001  8  05 01 06 00 DC 45 B8 B4 
  1308)      9249.6  Rx         0001  8  05 01 F0 48 F0 B9 06 F4 
  1309)      9249.6  Rx         0001  8  05 01 0E 10 16 FB 20 00 
  1310)      9249.7  Rx         0001  8  05 01 F0 54 7C E5 5C 2B 
  1311)      9249.7  Rx         0001  8  05 01 70 B5 66 F4 FF 3F 
  1312)      9249.8  Rx         0001  8  05 01 49 D0 3D 14 E6 F5 
  1313)      9249.8  Rx         0001  8  05 01 00 40 DC 4A B8 50 
  1314)      9250.9  Rx         0001  2  02 01 
  1315)      9252.7  Rx         0002  6  02 01 00 42 00 00 
  1316)      9253.8  Rx         0001  8  05 01 D4 5F 0E 00 5C 25 
  1317)      9253.8  Rx         0001  8  05 01 66 F5 FC 1F DC 4A 
  1318)      9253.9  Rx         0001  8  05 01 78 58 DA E0 F0 36 
  1319)      9253.9  Rx         0001  8  05 01 F0 24 D4 5F 12 00 
  1320)      9254.0  Rx         0001  8  05 01 5C 25 66 F5 FC 1F 
  1321)      9254.0  Rx         0001  8  05 01 0D 30 E6 F5 00 60 
  1322)      9254.0  Rx         0001  8  05 01 DC 4A B8 50 F0 28 
  1323)      9254.1  Rx         0001  8  05 01 F0 69 06 F2 18 10 
  1324)      9254.1  Rx         0001  8  05 01 16 F6 20 00 F0 52 
  1325)      9254.2  Rx         0001  8  05 01 7C E5 5C 26 70 65 
  1326)      9254.2  Rx         0001  8  05 01 66 F2 FF 3F D4 5F 
  1327)      9256.0  Rx         0001  2  02 01 
  1328)      9257.0  Rx         0002  6  02 01 00 42 00 00 
  1329)      9258.1  Rx         0001  8  05 01 0E 00 DC 46 B8 52 
  1330)      9258.2  Rx         0001  8  05 01 F0 20 D4 5F 14 00 
  1331)      9258.2  Rx         0001  8  05 01 66 F5 FF 1F DC 4A 
  1332)      9258.3  Rx         0001  8  05 01 78 5A DA E0 F0 36 
  1333)      9258.3  Rx         0001  8  05 01 06 F8 0C 10 16 F9 
  1334)      9258.4  Rx         0001  8  05 01 20 00 F0 58 7C E5 
  1335)      9258.4  Rx         0001  8  05 01 5C 29 70 95 66 F8 
  1336)      9258.4  Rx         0001  8  05 01 FF 3F D4 5F 12 00 
  1337)      9258.5  Rx         0001  8  05 01 DC 49 B8 58 F0 24 
  1338)      9258.5  Rx         0001  8  05 01 D4 5F 16 00 66 F5 
  1339)      9258.6  Rx         0001  8  05 01 FF 1F DC 5B 78 5A 
  1340)      9259.9  Rx         0001  2  02 01 
  1341)      9261.4  Rx         0002  6  02 01 00 42 00 00 
  1342)      9262.4  Rx         0001  8  05 01 B8 54 DA E0 1E 31 
  1343)      9262.5  Rx         0001  8  05 01 E0 1B DC 4C B8 BD 
  1344)      9262.5  Rx         0001  8  05 01 A8 BF D4 CF 06 00 
  1345)      9262.6  Rx         0001  8  05 01 DC 4C A8 2B 7C 82 
  1346)      9262.6  Rx         0001  8  05 01 F1 B4 0D 20 F1 B4 
  1347)      9262.7  Rx         0001  8  05 01 C0 4B 5C 5B F0 CB 
  1348)      9262.7  Rx         0001  8  05 01 E0 0D 06 FC 1E 10 
  1349)      9262.7  Rx         0001  8  05 01 DA E0 32 35 DC 4D 
  1350)      9262.8  Rx         0001  8  05 01 A8 4C 7C 84 F1 48 
  1351)      9262.8  Rx         0001  8  05 01 E0 0E 06 FB 1C 10 
  1352)      9262.9  Rx         0001  8  05 01 16 FE 20 00 F0 4B 
  1353)      9265.0  Rx         0001  2  02 01 
  1354)      9265.7  Rx         0002  6  02 01 00 42 00 00 
  1355)      9266.8  Rx         0001  8  05 01 7C E4 5C 2E 70 E4 
  1356)      9266.8  Rx         0001  8  05 01 66 FB FF 3F E6 F4 
  1357)      9266.9  Rx         0001  8  05 01 FF 0F DC 4E B8 4B 
  1358)      9267.0  Rx         0001  8  05 01 E6 FB 20 00 DC 4D 
  1359)      9267.0  Rx         0001  8  05 01 B8 BC 41 B6 3D DE 
  1360)      9267.0  Rx         0001  8  05 01 0D 5C E6 FB FF 0F 
  1361)      9267.1  Rx         0001  8  05 01 DC 42 B8 B4 E6 FB 
  1362)      9267.1  Rx         0001  8  05 01 20 06 A8 4F D4 5F 
  1363)      9267.1  Rx         0001  8  05 01 06 00 DC 45 B8 B4 
  1364)      9267.2  Rx         0001  8  05 01 E6 FB 00 40 DC 4A 
  1365)      9267.2  Rx         0001  8  05 01 B8 B0 DA E0 1E 31 
  1366)      9268.9  Rx         0001  2  02 01 
  1367)      9270.0  Rx         0002  6  02 01 00 42 00 00 
  1368)      9271.4  Rx         0001  8  05 01 E0 2B DC 4C B8 BD 
  1369)      9271.6  Rx         0001  8  05 01 A8 BF D4 CF 06 00 
  1370)      9271.6  Rx         0001  8  05 01 DC 4C A8 4B 7C 84 
  1371)      9271.6  Rx         0001  8  05 01 F1 B8 0D 3E F1 B8 
  1372)      9271.7  Rx         0001  8  05 01 C0 8E 5C 5E E0 02 
  1373)      9271.7  Rx         0001  8  05 01 F0 8E E0 09 06 F8 
  1374)      9271.7  Rx         0001  8  05 01 1E 10 DA E0 EA 34 
  1375)      9271.8  Rx         0001  8  05 01 DC 49 A8 48 7C 84 
  1376)      9271.8  Rx         0001  8  05 01 F0 BE DA E0 6A 38 
  1377)      9271.9  Rx         0001  8  05 01 E6 FD FF 0F DC 4C 
  1378)      9271.9  Rx         0001  8  05 01 B8 DB E6 FB 20 02 
  1379)      9276.3  Rx         0001  2  02 01 
  1380)      9276.8  Rx         0002  6  02 01 00 42 00 00 
  1381)      9278.1  Rx         0001  8  05 01 DC 49 B8 B8 F0 BE 
  1382)      9278.3  Rx         0001  8  05 01 DA E0 42 38 E6 FD 
  1383)      9278.5  Rx         0001  8  05 01 00 40 DC 4C B8 DB 
  1384)      9278.6  Rx         0001  8  05 01 F0 BE DA E0 7E 38 
  1385)      9278.6  Rx         0001  8  05 01 DC 4C B8 7B F0 BE 
  1386)      9278.8  Rx         0001  8  05 01 DA E0 92 38 DC 4C 
  1387)      9278.8  Rx         0001  8  05 01 B8 2B F0 BE F0 C2 
  1388)      9278.9  Rx         0001  8  05 01 DA E0 C2 38 E6 FD 
  1389)      9278.9  Rx         0001  8  05 01 00 08 DC 4C B8 DB 
  1390)      9278.9  Rx         0001  8  05 01 06 FE 00 10 16 F2 
  1391)      9279.0  Rx         0001  8  05 01 20 00 F0 BE 7C EB 
  1392)      9280.9  Rx         0001  2  02 01 
  1393)      9281.5  Rx         0002  6  02 01 00 42 00 00 
  1394)      9282.6  Rx         0001  8  05 01 5C 22 70 2B 66 FE 
  1395)      9282.6  Rx         0001  8  05 01 FF 3F E0 3B DC 42 
  1396)      9282.7  Rx         0001  8  05 01 B8 BE 41 B6 3D C0 
  1397)      9282.7  Rx         0001  8  05 01 D4 2F 10 00 06 FF 
  1398)      9282.8  Rx         0001  8  05 01 18 00 FA E0 06 36 
  1399)      9282.8  Rx         0001  8  05 01 DA E0 16 38 28 F6 
  1400)      9282.9  Rx         0001  8  05 01 E0 08 F0 2F E6 F3 
  1401)      9282.9  Rx         0001  8  05 01 1E 5B E0 54 DA E0 
  1402)      9283.0  Rx         0001  8  05 01 36 39 E1 0C E6 FB 
  1403)      9283.0  Rx         0001  8  05 01 FF 00 D7 40 81 00 
  1404)      9283.0  Rx         0001  8  05 01 62 FB 1A 0B C2 FC 
  1405)      9284.9  Rx         0001  2  02 01 
  1406)      9285.8  Rx         0002  6  02 01 00 42 00 00 
  1407)      9287.3  Rx         0001  8  05 01 5E 5B 40 BC 2D 03 
  1408)      9287.4  Rx         0001  8  05 01 E0 28 EA 00 AC 06 
  1409)      9287.4  Rx         0001  8  05 01 E1 09 0D 09 C0 9B 
  1410)      9287.5  Rx         0001  8  05 01 5C 1B D7 40 81 00 
  1411)      9287.5  Rx         0001  8  05 01 F2 FC 20 0B 09 91 
  1412)      9287.5  Rx         0001  8  05 01 C4 CB E4 58 D7 40 
  1413)      9287.6  Rx         0001  8  05 01 81 00 F2 FB 18 0B 
  1414)      9287.6  Rx         0001  8  05 01 8A FB 03 30 47 F9 
  1415)      9287.7  Rx         0001  8  05 01 20 00 8D EE E6 FE 
  1416)      9287.8  Rx         0001  8  05 01 24 59 F3 F8 66 5B 
  1417)      9287.8  Rx         0001  8  05 01 F1 B8 2D 30 F4 9E 
  1418)      9288.9  Rx         0001  2  02 01 
  1419)      9290.5  Rx         0002  6  02 01 00 42 00 00 
  1420)      9291.6  Rx         0001  8  05 01 09 00 2D 29 A8 BE 
  1421)      9291.7  Rx         0001  8  05 01 F4 AE 08 00 F0 2B 
  1422)      9291.7  Rx         0001  8  05 01 D4 9B 04 00 08 26 
  1423)      9291.8  Rx         0001  8  05 01 F4 9B 02 00 E1 07 
  1424)      9291.8  Rx         0001  8  05 01 C0 AA 5C 1A 06 FA 
  1425)      9291.8  Rx         0001  8  05 01 E4 58 0D 08 C0 7B 
  1426)      9291.9  Rx         0001  8  05 01 5C 1B F0 C9 F0 DA 
  1427)      9291.9  Rx         0001  8  05 01 00 CB 00 DB 09 71 
  1428)      9291.9  Rx         0001  8  05 01 C8 CD 49 7A 9D 08 
  1429)      9292.0  Rx         0001  8  05 01 41 79 9D 06 C0 7B 
  1430)      9292.0  Rx         0001  8  05 01 C0 AC 00 BC 46 FB 
  1431)      9294.0  Rx         0001  2  02 01 
  1432)      9294.9  Rx         0002  6  02 01 00 42 00 00 
  1433)      9296.0  Rx         0001  8  05 01 20 00 CD EE B9 72 
  1434)      9296.0  Rx         0001  8  05 01 A8 BE E1 19 E4 9B 
  1435)      9296.1  Rx         0001  8  05 01 07 00 E1 09 E4 9E 
  1436)      9296.1  Rx         0001  8  05 01 09 00 06 FE 0A 00 
  1437)      9296.2  Rx         0001  8  05 01 29 B1 3D D0 E6 FB 
  1438)      9296.2  Rx         0001  8  05 01 FF F3 D7 40 81 00 
  1439)      9296.2  Rx         0001  8  05 01 64 FB 3C 0A F7 8E 
  1440)      9296.3  Rx         0001  8  05 01 5E 5B E1 0D E6 F7 
  1441)      9296.3  Rx         0001  8  05 01 24 59 49 80 FD 75 
  1442)      9296.4  Rx         0001  8  05 01 D4 97 04 00 D4 A7 
  1443)      9296.7  Rx         0001  8  05 01 06 00 F0 BA 70 B9 
  1444)      9297.9  Rx         0001  2  02 01 
  1445)      9299.3  Rx         0002  6  02 01 00 42 00 00 
  1446)      9300.4  Rx         0001  8  05 01 2D 0A E7 F4 20 00 
  1447)      9300.4  Rx         0001  8  05 01 23 F4 5E 5B DA E0 
  1448)      9300.5  Rx         0001  8  05 01 18 39 48 80 2D 01 
  1449)      9300.5  Rx         0001  8  05 01 F0 28 F0 82 A8 B7 
  1450)      9300.5  Rx         0001  8  05 01 F4 9B 03 00 2D 5A 
  1451)      9300.6  Rx         0001  8  05 01 F4 9B 02 00 49 90 
  1452)      9300.6  Rx         0001  8  05 01 FD 56 F3 F8 5E 5B 
  1453)      9300.7  Rx         0001  8  05 01 C0 9B C0 8C 00 BC 
  1454)      9300.7  Rx         0001  8  05 01 46 FB 20 00 BD 05 
  1455)      9300.7  Rx         0001  8  05 01 48 80 3D 42 E6 F8 
  1456)      9300.8  Rx         0001  8  05 01 51 00 0D 3F E4 87 
  1457)      9302.0  Rx         0001  2  02 01 
  1458)      9303.6  Rx         0002  6  02 01 00 42 00 00 
  1459)      9304.7  Rx         0001  8  05 01 08 00 E1 19 E4 97 
  1460)      9304.7  Rx         0001  8  05 01 09 00 A8 B7 E0 02 
  1461)      9304.8  Rx         0001  8  05 01 F4 9B 02 00 05 F9 
  1462)      9304.8  Rx         0001  8  05 01 5E 5B A8 3B D7 40 
  1463)      9304.9  Rx         0001  8  05 01 81 00 C2 F9 33 0A 
  1464)      9305.0  Rx         0001  8  05 01 00 99 18 20 00 99 
  1465)      9305.0  Rx         0001  8  05 01 10 22 06 F9 80 41 
  1466)      9305.0  Rx         0001  8  05 01 16 F2 20 00 F0 B3 
  1467)      9305.1  Rx         0001  8  05 01 C0 9C A0 1C BD 10 
  1468)      9305.1  Rx         0001  8  05 01 F0 D9 F0 E2 06 FD 
  1469)      9305.2  Rx         0001  8  05 01 00 0A 18 E0 F0 5D 
  1470)      9307.1  Rx         0001  2  02 01 
  1471)      9307.9  Rx         0002  6  02 01 00 42 00 00 
  1472)      9309.1  Rx         0001  8  05 01 7C E5 5C 2E 70 E5 
  1473)      9309.3  Rx         0001  8  05 01 66 FD FF 3F 98 5B 
  1474)      9309.5  Rx         0001  8  05 01 DC 4E B8 5D 28 C1 
  1475)      9309.5  Rx         0001  8  05 01 3D F0 06 F9 40 00 
  1476)      9309.6  Rx         0001  8  05 01 18 20 06 F9 00 0A 
  1477)      9309.6  Rx         0001  8  05 01 18 20 F0 B9 7C EB 
  1478)      9309.7  Rx         0001  8  05 01 5C 22 70 2B C0 9B 
  1479)      9309.7  Rx         0001  8  05 01 5C 1B 28 B2 00 3B 
  1480)      9309.8  Rx         0001  8  05 01 66 F9 FF 3F A8 B3 
  1481)      9309.8  Rx         0001  8  05 01 DC 42 B8 B9 A8 B7 
  1482)      9309.8  Rx         0001  8  05 01 E1 09 E4 9B 03 00 
  1483)      9311.0  Rx         0001  2  02 01 
  1484)      9312.4  Rx         0002  6  02 01 00 42 00 00 
  1485)      9313.5  Rx         0001  8  05 01 C0 CB 00 BF F4 97 
  1486)      9313.5  Rx         0001  8  05 01 02 00 09 C1 B9 9B 
  1487)      9313.5  Rx         0001  8  05 01 06 F7 0A 00 09 D1 
  1488)      9313.6  Rx         0001  8  05 01 43 FD 66 5B 8D 8B 
  1489)      9313.6  Rx         0001  8  05 01 43 8E 5E 5B 9D 50 
  1490)      9313.7  Rx         0001  8  05 01 E6 FB 00 FF D7 40 
  1491)      9313.7  Rx         0001  8  05 01 81 00 64 FB 42 0A 
  1492)      9313.8  Rx         0001  8  05 01 A9 9F C0 9B D7 40 
  1493)      9313.8  Rx         0001  8  05 01 81 00 74 FB 42 0A 
  1494)      9313.8  Rx         0001  8  05 01 49 C1 FD 36 E0 1B 
  1495)      9313.9  Rx         0001  8  05 01 00 BF E6 FC EC 5A 
  1496)      9315.1  Rx         0001  2  02 01 
  1497)      9316.7  Rx         0002  6  02 01 00 42 00 00 
  1498)      9317.8  Rx         0001  8  05 01 E6 FD ED 5A 29 C1 
  1499)      9317.8  Rx         0001  8  05 01 2D 06 C9 CB 08 C2 
  1500)      9317.9  Rx         0001  8  05 01 E9 DB 08 D2 29 C1 
  1501)      9317.9  Rx         0001  8  05 01 3D FA C2 FB 0F 57 
  1502)      9318.0  Rx         0001  8  05 01 F0 CB 5C 2C E6 FD 
  1503)      9318.0  Rx         0001  8  05 01 EC 5A 5C 1B C4 DC 
  1504)      9318.1  Rx         0001  8  05 01 40 EC E6 FD 42 4A 
  1505)      9318.1  Rx         0001  8  05 01 C4 DC 42 EC F0 CB 
  1506)      9318.2  Rx         0001  8  05 01 06 FC 80 EC 06 FB 
  1507)      9318.2  Rx         0001  8  05 01 C0 FE E6 FD E0 00 
  1508)      9318.3  Rx         0001  8  05 01 5C 8D B8 DC A8 DC 
  1509)      9320.0  Rx         0001  2  02 01 
  1510)      9321.0  Rx         0002  6  02 01 00 42 00 00 
  1511)      9322.1  Rx         0001  8  05 01 5F FD B8 DC A8 CB 
  1512)      9322.1  Rx         0001  8  05 01 66 FC 00 FF B8 CB 
  1513)      9322.2  Rx         0001  8  05 01 A8 CB 76 FC 0C 00 
  1514)      9322.2  Rx         0001  8  05 01 B8 CB E6 FB 00 40 
  1515)      9322.3  Rx         0001  8  05 01 D7 40 81 00 74 FB 
  1516)      9322.3  Rx         0001  8  05 01 40 0A 0D 06 E6 FB 
  1517)      9322.4  Rx         0001  8  05 01 FF BF D7 40 81 00 
  1518)      9322.4  Rx         0001  8  05 01 64 FB 40 0A E6 FB 
  1519)      9322.4  Rx         0001  8  05 01 00 04 D7 40 81 00 
  1520)      9322.5  Rx         0001  8  05 01 74 FB 3C 0A F0 28 
  1521)      9322.5  Rx         0001  8  05 01 08 F6 FA E0 E6 37 
  1522)      9324.1  Rx         0001  2  02 01 
  1523)      9325.4  Rx         0002  6  02 01 00 42 00 00 
  1524)      9326.4  Rx         0001  8  05 01 DA E0 46 36 26 FF 
  1525)      9326.5  Rx         0001  8  05 01 0C 00 F1 97 C4 BF 
  1526)      9326.5  Rx         0001  8  05 01 02 00 C4 CF 06 00 
  1527)      9326.5  Rx         0001  8  05 01 C4 DF 04 00 C4 EF 
  1528)      9326.6  Rx         0001  8  05 01 08 00 84 0F 1C FF 
  1529)      9326.7  Rx         0001  8  05 01 F0 82 3D 05 E6 FB 
  1530)      9326.8  Rx         0001  8  05 01 1E 00 B8 BF EA 00 
  1531)      9326.9  Rx         0001  8  05 01 1E 09 47 F6 3A 00 
  1532)      9326.9  Rx         0001  8  05 01 8D 03 47 F6 3B 00 
  1533)      9326.9  Rx         0001  8  05 01 FD 05 E6 FB 22 00 
  1534)      9327.0  Rx         0001  8  05 01 B8 BF EA 00 1E 09 
  1535)      9328.4  Rx         0001  2  02 01 
  1536)      9329.7  Rx         0002  6  02 01 00 42 00 00 
  1537)      9331.0  Rx         0001  8  05 01 C0 6B 5C 2B F4 BB 
  1538)      9331.2  Rx         0001  8  05 01 00 56 3D 05 E6 FB 
  1539)      9331.4  Rx         0001  8  05 01 21 00 B8 BF EA 00 
  1540)      9331.7  Rx         0001  8  05 01 1E 09 49 90 2D 02 
  1541)      9331.8  Rx         0001  8  05 01 49 91 3D 12 49 80 
  1542)      9331.8  Rx         0001  8  05 01 2D 02 49 81 3D 0E 
  1543)      9332.0  Rx         0001  8  05 01 D4 BF 06 00 D4 CF 
  1544)      9332.1  Rx         0001  8  05 01 02 00 DA E0 60 38 
  1545)      9332.1  Rx         0001  8  05 01 ED 07 D4 BF 08 00 
  1546)      9332.1  Rx         0001  8  05 01 D4 CF 04 00 DA E0 
  1547)      9332.2  Rx         0001  8  05 01 60 38 FD 05 E6 FB 
  1548)      9337.7  Rx         0001  2  02 01 
  1549)      9338.3  Rx         0002  6  02 01 00 42 00 00 
  1550)      9339.6  Rx         0001  8  05 01 1F 00 B8 BF EA 00 
  1551)      9339.7  Rx         0001  8  05 01 1E 09 F2 FB 56 5B 
  1552)      9339.9  Rx         0001  8  05 01 46 FB 80 00 8D 05 
  1553)      9340.0  Rx         0001  8  05 01 E6 FB 2A 00 B8 BF 
  1554)      9340.1  Rx         0001  8  05 01 EA 00 1E 09 F2 FB 
  1555)      9340.2  Rx         0001  8  05 01 54 5B 46 FB 80 00 
  1556)      9340.3  Rx         0001  8  05 01 8D 05 E6 FB 2B 00 
  1557)      9340.4  Rx         0001  8  05 01 B8 BF EA 00 1E 09 
  1558)      9340.5  Rx         0001  8  05 01 DA E0 B8 36 F1 B5 
  1559)      9340.7  Rx         0001  8  05 01 09 51 E1 34 DA E0 
  1560)      9340.8  Rx         0001  8  05 01 D4 36 DA E0 6C 2E 
  1561)      9342.3  Rx         0001  2  02 01 
  1562)      9342.9  Rx         0002  6  02 01 00 42 00 00 
  1563)      9344.2  Rx         0001  8  05 01 B9 48 A9 A8 C0 AB 
  1564)      9344.4  Rx         0001  8  05 01 DA E0 74 38 C0 BD 
  1565)      9344.6  Rx         0001  8  05 01 5C 8D 66 FC FF F8 
  1566)      9344.8  Rx         0001  8  05 01 70 CD B8 CB DA E0 
  1567)      9345.0  Rx         0001  8  05 01 D2 38 66 FC FF 9F 
  1568)      9345.1  Rx         0001  8  05 01 76 FC 00 20 B8 CB 
  1569)      9345.2  Rx         0001  8  05 01 A9 B8 C0 BB 5C 2B 
  1570)      9345.3  Rx         0001  8  05 01 C0 62 5C 52 E4 6B 
  1571)      9345.7  Rx         0001  8  05 01 00 54 DA E0 D2 38 
  1572)      9345.8  Rx         0001  8  05 01 4A F4 FC 8B B8 CB 
  1573)      9346.0  Rx         0001  8  05 01 DA E0 D2 38 4A F4 
  1574)      9347.4  Rx         0001  2  02 01 
  1575)      9348.0  Rx         0002  6  02 01 00 42 00 00 
  1576)      9349.4  Rx         0001  8  05 01 FC 0C B8 CB E0 06 
  1577)      9349.4  Rx         0001  8  05 01 F0 12 E0 0A 06 F1 
  1578)      9349.7  Rx         0001  8  05 01 1C 10 16 FA 20 00 
  1579)      9350.4  Rx         0001  8  05 01 F0 B1 7C EB 5C 2A 
  1580)      9350.6  Rx         0001  8  05 01 70 AB 66 F1 FF 3F 
  1581)      9350.8  Rx         0001  8  05 01 F0 52 E0 07 06 F5 
  1582)      9351.0  Rx         0001  8  05 01 1E 10 16 F7 20 00 
  1583)      9351.2  Rx         0001  8  05 01 F0 B5 7C EB 5C 27 
  1584)      9351.5  Rx         0001  8  05 01 70 7B 66 F5 FF 3F 
  1585)      9351.6  Rx         0001  8  05 01 F0 E2 E0 09 06 FE 
  1586)      9351.8  Rx         0001  8  05 01 1A 10 16 F9 20 00 
  1587)      9353.3  Rx         0001  2  02 01 
  1588)      9353.9  Rx         0002  6  02 01 00 42 00 00 
  1589)      9355.3  Rx         0001  8  05 01 F0 BE 7C EB 5C 29 
  1590)      9355.5  Rx         0001  8  05 01 70 9B 66 FE FF 3F 
  1591)      9355.6  Rx         0001  8  05 01 F0 32 E0 08 06 F3 
  1592)      9355.7  Rx         0001  8  05 01 02 10 16 F8 20 00 
  1593)      9355.8  Rx         0001  8  05 01 F0 B3 7C EB 5C 28 
  1594)      9356.0  Rx         0001  8  05 01 70 8B 66 F3 FF 3F 
  1595)      9356.2  Rx         0001  8  05 01 F0 D2 E0 0B DA E0 
  1596)      9356.3  Rx         0001  8  05 01 B6 35 70 BC C4 BF 
  1597)      9356.5  Rx         0001  8  05 01 0A 00 66 FD FF 3F 
  1598)      9356.6  Rx         0001  8  05 01 49 90 3D 65 E6 FB 
  1599)      9356.9  Rx         0001  8  05 01 FF 0F DC 4A B8 B1 
  1600)      9358.4  Rx         0001  2  02 01 
  1601)      9358.9  Rx         0002  6  02 01 00 42 00 00 
  1602)      9360.4  Rx         0001  8  05 01 E6 FB A0 00 DC 47 
  1603)      9360.7  Rx         0001  8  05 01 B8 B5 F0 C2 F0 B6 
  1604)      9361.0  Rx         0001  8  05 01 06 FC 0E 10 16 FB 
  1605)      9361.2  Rx         0001  8  05 01 20 00 F0 5C 7C E5 
  1606)      9361.4  Rx         0001  8  05 01 5C 2B 70 B5 66 FC 
  1607)      9361.5  Rx         0001  8  05 01 FF 3F 49 80 3D 15 
  1608)      9361.7  Rx         0001  8  05 01 E6 F4 00 40 DC 49 
  1609)      9361.8  Rx         0001  8  05 01 B8 4E F0 2E D4 4F 
  1610)      9362.0  Rx         0001  8  05 01 02 00 5C 24 66 F4 
  1611)      9362.1  Rx         0001  8  05 01 FC 1F DC 49 78 4A 
  1612)      9362.3  Rx         0001  8  05 01 DA E0 E2 36 F0 2C 
  1613)      9364.4  Rx         0001  2  02 01 
  1614)      9365.0  Rx         0002  6  02 01 00 42 00 00 
  1615)      9366.2  Rx         0001  8  05 01 D4 EF 04 00 5C 2E 
  1616)      9366.4  Rx         0001  8  05 01 66 FE FC 1F 0D 30 
  1617)      9366.6  Rx         0001  8  05 01 E6 F4 00 60 DC 49 
  1618)      9366.9  Rx         0001  8  05 01 B8 4E F0 52 F0 76 
  1619)      9367.1  Rx         0001  8  05 01 06 F5 18 10 16 F7 
  1620)      9367.2  Rx         0001  8  05 01 20 00 F0 45 7C E4 
  1621)      9367.4  Rx         0001  8  05 01 5C 27 70 74 66 F5 
  1622)      9367.6  Rx         0001  8  05 01 FF 3F D4 4F 02 00 
  1623)      9367.8  Rx         0001  8  05 01 DC 47 B8 45 F0 0E 
  1624)      9367.9  Rx         0001  8  05 01 D4 4F 06 00 66 F4 
  1625)      9368.1  Rx         0001  8  05 01 FF 1F DC 49 78 48 
  1626)      9369.4  Rx         0001  2  02 01 
  1627)      9369.9  Rx         0002  6  02 01 00 42 00 00 
  1628)      9371.1  Rx         0001  8  05 01 DA E0 E2 36 06 F2 
  1629)      9371.3  Rx         0001  8  05 01 0C 10 16 F6 20 00 
  1630)      9371.4  Rx         0001  8  05 01 F0 E2 7C EE 5C 26 
  1631)      9371.6  Rx         0001  8  05 01 70 6E 66 F2 FF 3F 
  1632)      9371.7  Rx         0001  8  05 01 D4 EF 04 00 DC 46 
  1633)      9371.8  Rx         0001  8  05 01 B8 E2 F0 2C D4 EF 
  1634)      9372.0  Rx         0001  8  05 01 08 00 66 FE FF 1F 
  1635)      9372.1  Rx         0001  8  05 01 DC 5B 78 EA B8 EC 
  1636)      9372.2  Rx         0001  8  05 01 DA E0 62 34 E6 FB 
  1637)      9372.5  Rx         0001  8  05 01 19 00 DC 4A B8 B1 
  1638)      9372.7  Rx         0001  8  05 01 0D 0E E6 FB FF 0F 
  1639)      9374.3  Rx         0001  2  02 01 
  1640)      9374.9  Rx         0002  6  02 01 00 42 00 00 
  1641)      9376.1  Rx         0001  8  05 01 DC 4A B8 B1 E6 FB 
  1642)      9376.2  Rx         0001  8  05 01 20 06 DC 47 B8 B5 
  1643)      9376.3  Rx         0001  8  05 01 E6 FB 00 40 DC 49 
  1644)      9376.5  Rx         0001  8  05 01 B8 BE DA E0 62 34 
  1645)      9376.7  Rx         0001  8  05 01 A8 2F 06 FF 0C 00 
  1646)      9376.9  Rx         0001  8  05 01 FA E0 06 36 88 6F 
  1647)      9376.9  Rx         0001  8  05 01 88 8F 26 FF 80 00 
  1648)      9377.0  Rx         0001  8  05 01 E1 08 E7 FB FF 00 
  1649)      9377.0  Rx         0001  8  05 01 F3 FA 23 5B 29 45 
  1650)      9377.1  Rx         0001  8  05 01 01 44 E0 0E C2 FB 
  1651)      9377.3  Rx         0001  8  05 01 0E 5B 5C 1B 46 FB 
  1652)      9379.3  Rx         0001  2  02 01 
  1653)      9379.9  Rx         0002  6  02 01 00 42 00 00 
  1654)      9381.0  Rx         0001  8  05 01 40 00 AD 22 43 8E 
  1655)      9381.1  Rx         0001  8  05 01 0F 5B 2D 1B F7 8E 
  1656)      9381.3  Rx         0001  8  05 01 0F 5B F1 98 E6 FB 
  1657)      9381.3  Rx         0001  8  05 01 40 00 00 BF F3 F5 
  1658)      9381.4  Rx         0001  8  05 01 0E 5B 0D 0F C0 9C 
  1659)      9381.5  Rx         0001  8  05 01 5C 1C F0 DC 02 FD 
  1660)      9381.7  Rx         0001  8  05 01 0C 5B 08 C1 00 CF 
  1661)      9381.8  Rx         0001  8  05 01 A8 3D 7C 83 B9 6B 
  1662)      9381.8  Rx         0001  8  05 01 08 B2 A8 3D E4 6C 
  1663)      9381.9  Rx         0001  8  05 01 40 00 09 91 41 95 
  1664)      9381.9  Rx         0001  8  05 01 8D EF 0D 09 E1 09 
  1665)      9383.4  Rx         0001  2  02 01 
  1666)      9384.3  Rx         0002  6  02 01 00 42 00 00 
  1667)      9385.4  Rx         0001  8  05 01 E4 9F 40 00 0D 05 
  1668)      9385.4  Rx         0001  8  05 01 E1 09 E4 9F 40 00 
  1669)      9385.5  Rx         0001  8  05 01 E6 FE 3D 00 49 A0 
  1670)      9385.6  Rx         0001  8  05 01 2D 03 F4 BF 41 00 
  1671)      9385.8  Rx         0001  8  05 01 E1 0A F3 F9 61 5B 
  1672)      9386.0  Rx         0001  8  05 01 F3 F5 62 5B F2 FB 
  1673)      9386.1  Rx         0001  8  05 01 D2 5A 48 B0 ED 02 
  1674)      9386.3  Rx         0001  8  05 01 49 90 2D 45 49 90 
  1675)      9386.5  Rx         0001  8  05 01 2D 39 E1 29 B9 9F 
  1676)      9386.9  Rx         0001  8  05 01 F2 FC D0 5A F0 4C 
  1677)      9387.2  Rx         0001  8  05 01 7C 84 E4 8F 01 00 
  1678)      9388.4  Rx         0001  2  02 01 
  1679)      9389.0  Rx         0002  6  02 01 00 42 00 00 
  1680)      9390.2  Rx         0001  8  05 01 F0 4C E4 8F 02 00 
  1681)      9390.4  Rx         0001  8  05 01 E1 38 E1 09 E1 0B 
  1682)      9390.6  Rx         0001  8  05 01 3A FB F5 08 F0 DB 
  1683)      9390.8  Rx         0001  8  05 01 F2 F8 D4 5A 0D 09 
  1684)      9391.0  Rx         0001  8  05 01 C0 9B 00 BF 99 78 
  1685)      9391.2  Rx         0001  8  05 01 09 91 E4 7B 03 00 
  1686)      9391.3  Rx         0001  8  05 01 09 81 28 D1 08 C1 
  1687)      9391.4  Rx         0001  8  05 01 C0 BB 40 DB FD 0F 
  1688)      9391.6  Rx         0001  8  05 01 49 90 2D 04 F0 BC 
  1689)      9391.7  Rx         0001  8  05 01 66 FB 1F 00 2D 09 
  1690)      9391.8  Rx         0001  8  05 01 9A F4 05 80 F0 BC 
  1691)      9393.5  Rx         0001  2  02 01 
  1692)      9394.1  Rx         0002  6  02 01 00 42 00 00 
  1693)      9395.5  Rx         0001  8  05 01 08 B1 66 FB 1F 00 
  1694)      9395.6  Rx         0001  8  05 01 2D 02 41 84 8D E5 
  1695)      9395.7  Rx         0001  8  05 01 F6 F8 D4 5A F6 FC 
  1696)      9395.8  Rx         0001  8  05 01 D0 5A F6 FD D2 5A 
  1697)      9395.8  Rx         0001  8  05 01 E1 09 48 D0 3D 55 
  1698)      9395.8  Rx         0001  8  05 01 0D 23 47 FB FF 00 
  1699)      9396.0  Rx         0001  8  05 01 2D 4A 8A F5 48 80 
  1700)      9396.2  Rx         0001  8  05 01 E1 69 B9 9F E1 18 
  1701)      9396.3  Rx         0001  8  05 01 E1 19 0D 4A F2 FD 
  1702)      9396.4  Rx         0001  8  05 01 D8 5A 48 D0 ED 02 
  1703)      9396.7  Rx         0001  8  05 01 49 50 2D 44 49 50 
  1704)      9398.3  Rx         0001  2  02 01 
  1705)      9399.0  Rx         0002  6  02 01 00 42 00 00 
  1706)      9400.1  Rx         0001  8  05 01 2D 14 F2 FB DA 5A 
  1707)      9400.2  Rx         0001  8  05 01 E6 FC 43 00 00 CF 
  1708)      9400.5  Rx         0001  8  05 01 F3 FB 63 5B 2D 04 
  1709)      9400.6  Rx         0001  8  05 01 D9 BC 08 C1 29 B1 
  1710)      9400.8  Rx         0001  8  05 01 3D FC F6 FB DA 5A 
  1711)      9401.2  Rx         0001  8  05 01 E1 05 48 D0 3D 31 
  1712)      9401.5  Rx         0001  8  05 01 F7 8E DC 5A 0D 2E 
  1713)      9401.8  Rx         0001  8  05 01 47 FB FF 00 2D 24 
  1714)      9401.9  Rx         0001  8  05 01 8A F5 22 80 E1 38 
  1715)      9402.1  Rx         0001  8  05 01 B9 8F F2 F3 D6 5A 
  1716)      9402.2  Rx         0001  8  05 01 F0 63 7C 86 E4 CF 
  1717)      9403.4  Rx         0001  2  02 01 
  1718)      9404.0  Rx         0002  6  02 01 00 42 00 00 
  1719)      9405.3  Rx         0001  8  05 01 01 00 E4 6F 02 00 
  1720)      9405.5  Rx         0001  8  05 01 E1 0B F0 BD 0D 08 
  1721)      9406.3  Rx         0001  8  05 01 C0 BC 00 CF E1 05 
  1722)      9406.5  Rx         0001  8  05 01 09 B1 E4 5C 03 00 
  1723)      9406.9  Rx         0001  8  05 01 09 81 28 B1 48 B0 
  1724)      9407.1  Rx         0001  8  05 01 FD 02 41 84 8D F4 
  1725)      9407.3  Rx         0001  8  05 01 F6 FB D8 5A C0 BB 
  1726)      9407.5  Rx         0001  8  05 01 04 FB D6 5A E1 15 
  1727)      9407.6  Rx         0001  8  05 01 F7 FB 63 5B 0D 07 
  1728)      9407.8  Rx         0001  8  05 01 E1 58 B9 8F E1 08 
  1729)      9407.9  Rx         0001  8  05 01 E4 8F 01 00 E1 1A 
  1730)      9409.6  Rx         0001  2  02 01 
  1731)      9410.2  Rx         0002  6  02 01 00 42 00 00 
  1732)      9411.5  Rx         0001  8  05 01 E1 28 F7 F5 62 5B 
  1733)      9411.7  Rx         0001  8  05 01 F7 F9 61 5B E0 08 
  1734)      9412.0  Rx         0001  8  05 01 F1 98 29 91 47 F9 
  1735)      9412.1  Rx         0001  8  05 01 40 00 9D 2B E1 0B 
  1736)      9412.3  Rx         0001  8  05 01 49 80 FD 18 F0 BF 
  1737)      9412.5  Rx         0001  8  05 01 C0 B2 0E F2 F0 C2 
  1738)      9412.6  Rx         0001  8  05 01 02 FC 08 5B 99 9B 
  1739)      9412.7  Rx         0001  8  05 01 C0 9D 9A F5 09 80 
  1740)      9412.7  Rx         0001  8  05 01 A8 3C 66 F3 00 FF 
  1741)      9412.7  Rx         0001  8  05 01 B8 3C 02 F2 08 5B 
  1742)      9412.8  Rx         0001  8  05 01 78 DA B8 D2 0D 02 
  1743)      9414.3  Rx         0001  2  02 01 
  1744)      9414.9  Rx         0002  6  02 01 00 42 00 00 
  1745)      9416.0  Rx         0001  8  05 01 5C 8D B8 DC 09 B1 
  1746)      9416.1  Rx         0001  8  05 01 41 B8 8D E9 C0 B4 
  1747)      9416.2  Rx         0001  8  05 01 7C 14 E1 05 4A F5 
  1748)      9416.3  Rx         0001  8  05 01 F2 88 01 85 F7 F8 
  1749)      9416.4  Rx         0001  8  05 01 0A 5B E1 19 F7 F9 
  1750)      9416.5  Rx         0001  8  05 01 0B 5B E7 F9 20 00 
  1751)      9416.5  Rx         0001  8  05 01 F7 F9 0E 5B 0D 06 
  1752)      9416.6  Rx         0001  8  05 01 F7 8E 0B 5B 49 80 
  1753)      9416.7  Rx         0001  8  05 01 FD 02 E6 F8 3D 00 
  1754)      9416.7  Rx         0001  8  05 01 F0 2E 70 28 F7 FA 
  1755)      9416.7  Rx         0001  8  05 01 23 5B 06 FF 80 00 
  1756)      9418.4  Rx         0001  2  02 01 
  1757)      9419.3  Rx         0002  6  02 01 00 42 00 00 
  1758)      9420.4  Rx         0001  8  05 01 98 8F 98 6F DB 00 
  1759)      9420.4  Rx         0001  8  05 01 26 FF 0E 00 E1 1C 
  1760)      9420.5  Rx         0001  8  05 01 E1 0D DA E0 44 25 
  1761)      9420.5  Rx         0001  8  05 01 F1 F4 DA E0 4E 27 
  1762)      9420.6  Rx         0001  8  05 01 DA E0 26 39 DA E0 
  1763)      9420.7  Rx         0001  8  05 01 3A 39 DA E0 2E 39 
  1764)      9420.8  Rx         0001  8  05 01 E1 39 F7 F9 69 5B 
  1765)      9420.8  Rx         0001  8  05 01 DA E0 AA 1B DA E0 
  1766)      9420.8  Rx         0001  8  05 01 88 38 E6 F2 FF FF 
  1767)      9420.9  Rx         0001  8  05 01 E6 FB 7C 00 F0 32 
  1768)      9420.9  Rx         0001  8  05 01 E0 0C DA E0 2E 2A 
  1769)      9422.4  Rx         0001  2  02 01 
  1770)      9423.6  Rx         0002  6  02 01 00 42 00 00 
  1771)      9424.7  Rx         0001  8  05 01 DA E0 9C 38 06 FC 
  1772)      9424.8  Rx         0001  8  05 01 7C 00 DA E0 D6 35 
  1773)      9424.8  Rx         0001  8  05 01 40 2E 30 3C 3D 0D 
  1774)      9424.8  Rx         0001  8  05 01 E1 19 DA E0 92 37 
