 1258)     39312.8  Rx         0001  8  05 01 01 00 00 00 01 00 
  1259)     39313.1  Rx         0001  8  05 01 00 00 01 00 00 00 
  1260)     39313.4  Rx         0001  8  05 01 0A 02 00 00 00 00 
  1261)     39313.6  Rx         0001  8  05 01 00 00 01 00 00 00 
  1262)     39314.9  Rx         0001  8  05 01 00 00 00 00 02 00 
  1263)     39315.5  Rx         0001  8  05 01 00 00 F4 01 00 00 
  1264)     39315.7  Rx         0001  8  05 01 00 00 00 00 07 00 
  1265)     39315.9  Rx         0001  8  05 01 00 00 00 00 00 00 
  1266)     39316.2  Rx         0001  8  05 01 00 00 00 00 00 00 
  1267)     39316.5  Rx         0001  8  05 01 00 00 00 00 00 00 
  1268)     39316.7  Rx         0001  8  05 01 00 00 00 00 00 00 
  1269)     39319.6  Rx         0001  2  02 01 
  1270)     39320.2  Rx         0002  6  02 01 00 42 00 00 
  1271)     39321.6  Rx         0001  8  05 01 00 00 00 00 00 00 
  1272)     39321.8  Rx         0001  8  05 01 00 00 00 00 00 00 
  1273)     39322.9  Rx         0001  8  05 01 00 00 01 00 00 00 
  1274)     39323.2  Rx         0001  8  05 01 00 00 01 00 0B 1F 
  1275)     39323.5  Rx         0001  8  05 01 7A 3A 1D 2D 94 7E 
  1276)     39323.7  Rx         0001  8  05 01 7F B6 49 8F 72 0D 
  1277)     39324.1  Rx         0001  8  05 01 F0 65 55 D2 B2 0E 
  1278)     39324.2  Rx         0001  8  05 01 AF 40 06 FC B8 D2 
  1279)     39324.5  Rx         0001  8  05 01 D9 34 6E 20 83 2F 
  1280)     39324.7  Rx         0001  8  05 01 A2 92 A7 95 DC 27 
  1281)     39325.2  Rx         0001  8  05 01 29 D8 DA E0 46 36 
  1282)     39326.9  Rx         0001  2  02 01 
  1283)     39327.5  Rx         0002  6  02 01 00 42 00 00 
  1284)     39328.8  Rx         0001  8  05 01 26 FF 18 00 F1 B7 
  1285)     39329.0  Rx         0001  8  05 01 F1 A8 F1 D9 C4 BF 
  1286)     39329.1  Rx         0001  8  05 01 0E 00 C4 CF 14 00 
  1287)     39329.3  Rx         0001  8  05 01 C4 DF 12 00 C4 EF 
  1288)     39329.4  Rx         0001  8  05 01 16 00 E0 0B C4 BF 
  1289)     39329.5  Rx         0001  8  05 01 10 00 F0 82 3D 06 
  1290)     39329.7  Rx         0001  8  05 01 E6 FB 1E 00 C4 BF 
  1291)     39329.9  Rx         0001  8  05 01 10 00 EA 00 32 04 
  1292)     39330.1  Rx         0001  8  05 01 47 F6 3A 00 8D 03 
  1293)     39330.2  Rx         0001  8  05 01 47 F6 3B 00 FD 06 
  1294)     39330.4  Rx         0001  8  05 01 E6 FB 22 00 C4 BF 
  1295)     39332.0  Rx         0001  2  02 01 
  1296)     39332.6  Rx         0002  6  02 01 00 42 00 00 
  1297)     39334.7  Rx         0001  8  05 01 10 00 EA 00 32 04 
  1298)     39335.0  Rx         0001  8  05 01 C0 6B 5C 2B F4 9B 
  1299)     39335.3  Rx         0001  8  05 01 00 56 3D 06 E6 FB 
  1300)     39335.5  Rx         0001  8  05 01 21 00 C4 BF 10 00 
  1301)     39335.7  Rx         0001  8  05 01 EA 00 32 04 49 A0 
  1302)     39336.3  Rx         0001  8  05 01 2D 02 49 A1 3D 14 
  1303)     39336.5  Rx         0001  8  05 01 49 D0 2D 02 49 D1 
  1304)     39336.6  Rx         0001  8  05 01 3D 10 D4 BF 14 00 
  1305)     39336.9  Rx         0001  8  05 01 D4 CF 0E 00 DA E0 
  1306)     39337.2  Rx         0001  8  05 01 60 38 ED 09 D4 BF 
  1307)     39337.5  Rx         0001  8  05 01 16 00 D4 CF 12 00 
  1308)     39338.9  Rx         0001  2  02 01 
  1309)     39339.5  Rx         0002  6  02 01 00 42 00 00 
  1310)     39340.8  Rx         0001  8  05 01 DA E0 60 38 ED 02 
  1311)     39341.0  Rx         0001  8  05 01 49 B2 9D 06 E6 FB 
  1312)     39341.3  Rx         0001  8  05 01 1F 00 C4 BF 10 00 
  1313)     39341.4  Rx         0001  8  05 01 EA 00 32 04 C0 BB 
  1314)     39341.5  Rx         0001  8  05 01 02 FB 56 5B 46 FB 
  1315)     39341.7  Rx         0001  8  05 01 80 00 FD 06 E6 FB 
  1316)     39341.9  Rx         0001  8  05 01 2A 00 C4 BF 10 00 
  1317)     39342.0  Rx         0001  8  05 01 EA 00 32 04 F2 FB 
  1318)     39342.2  Rx         0001  8  05 01 54 5B 46 FB 80 00 
  1319)     39342.3  Rx         0001  8  05 01 8D 06 E6 FB 2B 00 
  1320)     39342.4  Rx         0001  8  05 01 C4 BF 10 00 EA 00 
  1321)     39344.0  Rx         0001  2  02 01 
  1322)     39344.6  Rx         0002  6  02 01 00 42 00 00 
  1323)     39346.0  Rx         0001  8  05 01 32 04 DA E0 B8 36 
  1324)     39346.2  Rx         0001  8  05 01 F1 C5 09 51 F1 85 
  1325)     39346.3  Rx         0001  8  05 01 E1 34 E1 06 DA E0 
  1326)     39346.5  Rx         0001  8  05 01 32 2D F0 72 24 8F 
  1327)     39346.6  Rx         0001  8  05 01 56 5B E1 19 E1 34 
  1328)     39346.8  Rx         0001  8  05 01 F1 58 DA E0 D4 36 
  1329)     39348.5  Rx         0001  8  05 01 09 91 41 9B 8D F9 
  1330)     39349.8  Rx         0001  8  05 01 DA E0 6C 2E B9 48 
  1331)     39350.1  Rx         0001  8  05 01 DA E0 BA 38 C0 CD 
  1332)     39350.8  Rx         0001  8  05 01 5C 8D 66 FC FF F8 
  1333)     39351.8  Rx         0001  8  05 01 70 CD B8 CB DA E0 
  1334)     39354.0  Rx         0001  2  02 01 
  1335)     39354.7  Rx         0002  6  02 01 00 42 00 00 
  1336)     39356.2  Rx         0001  8  05 01 BA 38 66 FC FF 9F 
  1337)     39356.5  Rx         0001  8  05 01 76 FC 00 40 B8 CB 
  1338)     39356.7  Rx         0001  8  05 01 A9 98 C0 9B 5C 2B 
  1339)     39357.1  Rx         0001  8  05 01 E0 09 E0 02 E4 EB 
  1340)     39357.4  Rx         0001  8  05 01 00 54 DA E0 BA 38 
  1341)     39357.6  Rx         0001  8  05 01 4A F5 FC 0B B8 CB 
  1342)     39357.8  Rx         0001  8  05 01 DA E0 BA 38 4A F6 
  1343)     39358.0  Rx         0001  8  05 01 FC 8C B8 CB A9 98 
  1344)     39358.3  Rx         0001  8  05 01 C0 9B 5C 2B C0 E8 
  1345)     39358.6  Rx         0001  8  05 01 5C 58 E4 EB 02 54 
  1346)     39358.8  Rx         0001  8  05 01 F0 48 06 F4 1C 10 
  1347)     39361.1  Rx         0001  2  02 01 
  1348)     39361.7  Rx         0002  6  02 01 00 42 00 00 
  1349)     39363.1  Rx         0001  8  05 01 16 F2 20 00 F0 B4 
  1350)     39363.4  Rx         0001  8  05 01 7C EB 5C 22 70 2B 
  1351)     39363.7  Rx         0001  8  05 01 66 F4 FF 3F F0 B8 
  1352)     39364.7  Rx         0001  8  05 01 DA E0 A6 38 B8 BF 
  1353)     39365.7  Rx         0001  8  05 01 C4 CF 06 00 F0 08 
  1354)     39366.3  Rx         0001  8  05 01 E0 0A 06 F0 1A 10 
  1355)     39366.8  Rx         0001  8  05 01 16 FA 20 00 F0 B0 
  1356)     39367.1  Rx         0001  8  05 01 7C EB 5C 2A 70 AB 
  1357)     39367.4  Rx         0001  8  05 01 66 F0 FF 3F C0 E7 
  1358)     39367.6  Rx         0001  8  05 01 66 F7 FF 00 C0 6E 
  1359)     39368.1  Rx         0001  8  05 01 5C 8E 70 E7 F0 B8 
  1360)     39370.0  Rx         0001  2  02 01 
  1361)     39370.7  Rx         0002  6  02 01 00 42 00 00 
  1362)     39372.1  Rx         0001  8  05 01 DA E0 7E 38 C4 BF 
  1363)     39372.5  Rx         0001  8  05 01 04 00 C4 CF 0C 00 
  1364)     39372.8  Rx         0001  8  05 01 F0 B8 DA E0 92 38 
  1365)     39373.3  Rx         0001  8  05 01 C4 BF 02 00 C4 CF 
  1366)     39373.7  Rx         0001  8  05 01 0A 00 F0 18 F0 B9 
  1367)     39374.0  Rx         0001  8  05 01 06 F1 02 10 16 FB 
  1368)     39374.4  Rx         0001  8  05 01 20 00 F0 C1 7C EC 
  1369)     39375.3  Rx         0001  8  05 01 5C 2B 70 BC C4 BF 
  1370)     39375.7  Rx         0001  8  05 01 08 00 66 F1 FF 3F 
  1371)     39376.0  Rx         0001  8  05 01 F0 D8 F0 B9 DA E0 
  1372)     39376.3  Rx         0001  8  05 01 B6 35 70 CB 66 FD 
  1373)     39378.1  Rx         0001  2  02 01 
  1374)     39378.7  Rx         0002  6  02 01 00 42 00 00 
  1375)     39380.3  Rx         0001  8  05 01 FF 3F 49 A0 EA 30 
  1376)     39382.3  Rx         0001  8  05 01 7A 03 E6 FB FF 0F 
  1377)     39384.3  Rx         0001  8  05 01 DC 42 B8 B4 E6 FB 
  1378)     39385.2  Rx         0001  8  05 01 A0 00 A8 4F D4 5F 
  1379)     39386.0  Rx         0001  8  05 01 06 00 DC 45 B8 B4 
  1380)     39386.3  Rx         0001  8  05 01 F0 48 F0 B9 06 F4 
  1381)     39386.6  Rx         0001  8  05 01 0E 10 16 FB 20 00 
  1382)     39387.1  Rx         0001  8  05 01 F0 54 7C E5 5C 2B 
  1383)     39388.1  Rx         0001  8  05 01 70 B5 66 F4 FF 3F 
  1384)     39389.6  Rx         0001  8  05 01 49 D0 3D 14 E6 F5 
  1385)     39390.7  Rx         0001  8  05 01 00 40 DC 4A B8 50 
  1386)     39392.9  Rx         0001  2  02 01 
  1387)     39393.5  Rx         0002  6  02 01 00 42 00 00 
  1388)     39395.2  Rx         0001  8  05 01 D4 5F 0E 00 5C 25 
  1389)     39395.7  Rx         0001  8  05 01 66 F5 FC 1F DC 4A 
  1390)     39396.1  Rx         0001  8  05 01 78 58 DA E0 F0 36 
  1391)     39396.6  Rx         0001  8  05 01 F0 24 D4 5F 12 00 
  1392)     39396.8  Rx         0001  8  05 01 5C 25 66 F5 FC 1F 
  1393)     39397.1  Rx         0001  8  05 01 0D 30 E6 F5 00 60 
  1394)     39397.6  Rx         0001  8  05 01 DC 4A B8 50 F0 28 
  1395)     39398.0  Rx         0001  8  05 01 F0 69 06 F2 18 10 
  1396)     39398.6  Rx         0001  8  05 01 16 F6 20 00 F0 52 
  1397)     39398.7  Rx         0001  8  05 01 7C E5 5C 26 70 65 
  1398)     39399.0  Rx         0001  8  05 01 66 F2 FF 3F D4 5F 
  1399)     39400.8  Rx         0001  2  02 01 
  1400)     39401.4  Rx         0002  6  02 01 00 42 00 00 
  1401)     39402.7  Rx         0001  8  05 01 0E 00 DC 46 B8 52 
  1402)     39403.0  Rx         0001  8  05 01 F0 20 D4 5F 14 00 
  1403)     39403.2  Rx         0001  8  05 01 66 F5 FF 1F DC 4A 
  1404)     39403.5  Rx         0001  8  05 01 78 5A DA E0 F0 36 
  1405)     39403.7  Rx         0001  8  05 01 06 F8 0C 10 16 F9 
  1406)     39404.3  Rx         0001  8  05 01 20 00 F0 58 7C E5 
  1407)     39404.5  Rx         0001  8  05 01 5C 29 70 95 66 F8 
  1408)     39404.8  Rx         0001  8  05 01 FF 3F D4 5F 12 00 
  1409)     39405.0  Rx         0001  8  05 01 DC 49 B8 58 F0 24 
  1410)     39405.2  Rx         0001  8  05 01 D4 5F 16 00 66 F5 
  1411)     39405.4  Rx         0001  8  05 01 FF 1F DC 5B 78 5A 
  1412)     39407.0  Rx         0001  2  02 01 
  1413)     39407.6  Rx         0002  6  02 01 00 42 00 00 
  1414)     39409.1  Rx         0001  8  05 01 B8 54 DA E0 1E 31 
  1415)     39409.4  Rx         0001  8  05 01 E0 1B DC 4C B8 BD 
  1416)     39409.7  Rx         0001  8  05 01 A8 BF D4 CF 06 00 
  1417)     39410.1  Rx         0001  8  05 01 DC 4C A8 2B 7C 82 
  1418)     39410.5  Rx         0001  8  05 01 F1 B4 0D 20 F1 B4 
  1419)     39410.9  Rx         0001  8  05 01 C0 4B 5C 5B F0 CB 
  1420)     39411.2  Rx         0001  8  05 01 E0 0D 06 FC 1E 10 
  1421)     39411.5  Rx         0001  8  05 01 DA E0 32 35 DC 4D 
  1422)     39412.6  Rx         0001  8  05 01 A8 4C 7C 84 F1 48 
  1423)     39413.4  Rx         0001  8  05 01 E0 0E 06 FB 1C 10 
  1424)     39414.1  Rx         0001  8  05 01 16 FE 20 00 F0 4B 
  1425)     39416.2  Rx         0001  2  02 01 
  1426)     39416.8  Rx         0002  6  02 01 00 42 00 00 
  1427)     39418.7  Rx         0001  8  05 01 7C E4 5C 2E 70 E4 
  1428)     39419.1  Rx         0001  8  05 01 66 FB FF 3F E6 F4 
  1429)     39419.5  Rx         0001  8  05 01 FF 0F DC 4E B8 4B 
  1430)     39419.7  Rx         0001  8  05 01 E6 FB 20 00 DC 4D 
  1431)     39420.0  Rx         0001  8  05 01 B8 BC 41 B6 3D DE 
  1432)     39420.2  Rx         0001  8  05 01 0D 5C E6 FB FF 0F 
  1433)     39420.5  Rx         0001  8  05 01 DC 42 B8 B4 E6 FB 
  1434)     39421.0  Rx         0001  8  05 01 20 06 A8 4F D4 5F 
  1435)     39421.3  Rx         0001  8  05 01 06 00 DC 45 B8 B4 
  1436)     39421.4  Rx         0001  8  05 01 E6 FB 00 40 DC 4A 
  1437)     39421.6  Rx         0001  8  05 01 B8 B0 DA E0 1E 31 
  1438)     39423.8  Rx         0001  2  02 01 
  1439)     39424.5  Rx         0002  6  02 01 00 42 00 00 
  1440)     39425.8  Rx         0001  8  05 01 E0 2B DC 4C B8 BD 
  1441)     39426.0  Rx         0001  8  05 01 A8 BF D4 CF 06 00 
  1442)     39426.1  Rx         0001  8  05 01 DC 4C A8 4B 7C 84 
  1443)     39426.3  Rx         0001  8  05 01 F1 B8 0D 3E F1 B8 
  1444)     39426.4  Rx         0001  8  05 01 C0 8E 5C 5E E0 02 
  1445)     39426.5  Rx         0001  8  05 01 F0 8E E0 09 06 F8 
  1446)     39426.7  Rx         0001  8  05 01 1E 10 DA E0 EA 34 
  1447)     39426.8  Rx         0001  8  05 01 DC 49 A8 48 7C 84 
  1448)     39427.7  Rx         0001  8  05 01 F0 BE DA E0 6A 38 
  1449)     39427.9  Rx         0001  8  05 01 E6 FD FF 0F DC 4C 
  1450)     39428.0  Rx         0001  8  05 01 B8 DB E6 FB 20 02 
  1451)     39429.7  Rx         0001  2  02 01 
  1452)     39430.3  Rx         0002  6  02 01 00 42 00 00 
  1453)     39432.4  Rx         0001  8  05 01 DC 49 B8 B8 F0 BE 
  1454)     39432.8  Rx         0001  8  05 01 DA E0 42 38 E6 FD 
  1455)     39433.0  Rx         0001  8  05 01 00 40 DC 4C B8 DB 
  1456)     39433.2  Rx         0001  8  05 01 F0 BE DA E0 7E 38 
  1457)     39433.4  Rx         0001  8  05 01 DC 4C B8 7B F0 BE 
  1458)     39433.7  Rx         0001  8  05 01 DA E0 92 38 DC 4C 
  1459)     39434.0  Rx         0001  8  05 01 B8 2B F0 BE F0 C2 
  1460)     39434.1  Rx         0001  8  05 01 DA E0 C2 38 E6 FD 
  1461)     39434.2  Rx         0001  8  05 01 00 08 DC 4C B8 DB 
  1462)     39434.4  Rx         0001  8  05 01 06 FE 00 10 16 F2 
  1463)     39434.6  Rx         0001  8  05 01 20 00 F0 BE 7C EB 
  1464)     39436.8  Rx         0001  2  02 01 
  1465)     39437.4  Rx         0002  6  02 01 00 42 00 00 
  1466)     39439.0  Rx         0001  8  05 01 5C 22 70 2B 66 FE 
  1467)     39439.8  Rx         0001  8  05 01 FF 3F E0 3B DC 42 
  1468)     39440.3  Rx         0001  8  05 01 B8 BE 41 B6 3D C0 
  1469)     39440.7  Rx         0001  8  05 01 D4 2F 10 00 06 FF 
  1470)     39441.0  Rx         0001  8  05 01 18 00 FA E0 06 36 
  1471)     39441.3  Rx         0001  8  05 01 DA E0 16 38 28 F6 
  1472)     39441.7  Rx         0001  8  05 01 E0 08 F0 2F E6 F3 
  1473)     39441.9  Rx         0001  8  05 01 1E 5B E0 54 DA E0 
  1474)     39442.1  Rx         0001  8  05 01 36 39 E1 0C E6 FB 
  1475)     39443.2  Rx         0001  8  05 01 FF 00 D7 40 81 00 
  1476)     39443.9  Rx         0001  8  05 01 62 FB 1A 0B C2 FC 
  1477)     39446.1  Rx         0001  2  02 01 
  1478)     39446.7  Rx         0002  6  02 01 00 42 00 00 
  1479)     39448.5  Rx         0001  8  05 01 5E 5B 40 BC 2D 03 
  1480)     39448.8  Rx         0001  8  05 01 E0 28 EA 00 AC 06 
  1481)     39449.0  Rx         0001  8  05 01 E1 09 0D 09 C0 9B 
  1482)     39449.3  Rx         0001  8  05 01 5C 1B D7 40 81 00 
  1483)     39449.4  Rx         0001  8  05 01 F2 FC 20 0B 09 91 
  1484)     39449.7  Rx         0001  8  05 01 C4 CB E4 58 D7 40 
  1485)     39450.0  Rx         0001  8  05 01 81 00 F2 FB 18 0B 
  1486)     39450.1  Rx         0001  8  05 01 8A FB 03 30 47 F9 
  1487)     39450.4  Rx         0001  8  05 01 20 00 8D EE E6 FE 
  1488)     39450.5  Rx         0001  8  05 01 24 59 F3 F8 66 5B 
  1489)     39450.7  Rx         0001  8  05 01 F1 B8 2D 30 F4 9E 
  1490)     39452.8  Rx         0001  2  02 01 
  1491)     39453.5  Rx         0002  6  02 01 00 42 00 00 
  1492)     39455.2  Rx         0001  8  05 01 09 00 2D 29 A8 BE 
  1493)     39455.5  Rx         0001  8  05 01 F4 AE 08 00 F0 2B 
  1494)     39455.8  Rx         0001  8  05 01 D4 9B 04 00 08 26 
  1495)     39456.5  Rx         0001  8  05 01 F4 9B 02 00 E1 07 
  1496)     39457.4  Rx         0001  8  05 01 C0 AA 5C 1A 06 FA 
  1497)     39457.7  Rx         0001  8  05 01 E4 58 0D 08 C0 7B 
  1498)     39458.1  Rx         0001  8  05 01 5C 1B F0 C9 F0 DA 
  1499)     39458.5  Rx         0001  8  05 01 00 CB 00 DB 09 71 
  1500)     39458.8  Rx         0001  8  05 01 C8 CD 49 7A 9D 08 
  1501)     39459.1  Rx         0001  8  05 01 41 79 9D 06 C0 7B 
  1502)     39459.5  Rx         0001  8  05 01 C0 AC 00 BC 46 FB 
  1503)     39461.0  Rx         0001  2  02 01 
  1504)     39461.6  Rx         0002  6  02 01 00 42 00 00 
  1505)     39463.3  Rx         0001  8  05 01 20 00 CD EE B9 72 
  1506)     39464.1  Rx         0001  8  05 01 A8 BE E1 19 E4 9B 
  1507)     39466.0  Rx         0001  8  05 01 07 00 E1 09 E4 9E 
  1508)     39468.4  Rx         0001  8  05 01 09 00 06 FE 0A 00 
  1509)     39468.9  Rx         0001  8  05 01 29 B1 3D D0 E6 FB 
  1510)     39469.4  Rx         0001  8  05 01 FF F3 D7 40 81 00 
  1511)     39470.0  Rx         0001  8  05 01 64 FB 3C 0A F7 8E 
  1512)     39471.0  Rx         0001  8  05 01 5E 5B E1 0D E6 F7 
  1513)     39471.3  Rx         0001  8  05 01 24 59 49 80 FD 75 
  1514)     39471.6  Rx         0001  8  05 01 D4 97 04 00 D4 A7 
  1515)     39472.0  Rx         0001  8  05 01 06 00 F0 BA 70 B9 
  1516)     39474.0  Rx         0001  2  02 01 
  1517)     39474.6  Rx         0002  6  02 01 00 42 00 00 
  1518)     39476.9  Rx         0001  8  05 01 2D 0A E7 F4 20 00 
  1519)     39477.6  Rx         0001  8  05 01 23 F4 5E 5B DA E0 
  1520)     39478.9  Rx         0001  8  05 01 18 39 48 80 2D 01 
  1521)     39479.3  Rx         0001  8  05 01 F0 28 F0 82 A8 B7 
  1522)     39479.7  Rx         0001  8  05 01 F4 9B 03 00 2D 5A 
  1523)     39480.1  Rx         0001  8  05 01 F4 9B 02 00 49 90 
  1524)     39480.8  Rx         0001  8  05 01 FD 56 F3 F8 5E 5B 
  1525)     39483.1  Rx         0001  8  05 01 C0 9B C0 8C 00 BC 
  1526)     39484.3  Rx         0001  8  05 01 46 FB 20 00 BD 05 
  1527)     39484.9  Rx         0001  8  05 01 48 80 3D 42 E6 F8 
  1528)     39485.7  Rx         0001  8  05 01 51 00 0D 3F E4 87 
  1529)     39487.4  Rx         0001  2  02 01 
  1530)     39488.0  Rx         0002  6  02 01 00 42 00 00 
  1531)     39489.5  Rx         0001  8  05 01 08 00 E1 19 E4 97 
  1532)     39489.9  Rx         0001  8  05 01 09 00 A8 B7 E0 02 
  1533)     39490.2  Rx         0001  8  05 01 F4 9B 02 00 05 F9 
  1534)     39490.6  Rx         0001  8  05 01 5E 5B A8 3B D7 40 
  1535)     39491.0  Rx         0001  8  05 01 81 00 C2 F9 33 0A 
  1536)     39491.6  Rx         0001  8  05 01 00 99 18 20 00 99 
  1537)     39492.0  Rx         0001  8  05 01 10 22 06 F9 80 41 
  1538)     39493.0  Rx         0001  8  05 01 16 F2 20 00 F0 B3 
  1539)     39494.6  Rx         0001  8  05 01 C0 9C A0 1C BD 10 
  1540)     39495.2  Rx         0001  8  05 01 F0 D9 F0 E2 06 FD 
  1541)     39495.7  Rx         0001  8  05 01 00 0A 18 E0 F0 5D 
  1542)     39497.4  Rx         0001  2  02 01 
  1543)     39498.1  Rx         0002  6  02 01 00 42 00 00 
  1544)     39499.7  Rx         0001  8  05 01 7C E5 5C 2E 70 E5 
  1545)     39500.0  Rx         0001  8  05 01 66 FD FF 3F 98 5B 
  1546)     39500.5  Rx         0001  8  05 01 DC 4E B8 5D 28 C1 
  1547)     39501.0  Rx         0001  8  05 01 3D F0 06 F9 40 00 
  1548)     39501.4  Rx         0001  8  05 01 18 20 06 F9 00 0A 
  1549)     39501.9  Rx         0001  8  05 01 18 20 F0 B9 7C EB 
  1550)     39502.4  Rx         0001  8  05 01 5C 22 70 2B C0 9B 
  1551)     39502.9  Rx         0001  8  05 01 5C 1B 28 B2 00 3B 
  1552)     39503.3  Rx         0001  8  05 01 66 F9 FF 3F A8 B3 
  1553)     39503.7  Rx         0001  8  05 01 DC 42 B8 B9 A8 B7 
  1554)     39504.2  Rx         0001  8  05 01 E1 09 E4 9B 03 00 
  1555)     39507.2  Rx         0001  2  02 01 
  1556)     39507.8  Rx         0002  6  02 01 00 42 00 00 
  1557)     39510.8  Rx         0001  8  05 01 C0 CB 00 BF F4 97 
  1558)     39512.5  Rx         0001  8  05 01 02 00 09 C1 B9 9B 
  1559)     39514.0  Rx         0001  8  05 01 06 F7 0A 00 09 D1 
  1560)     39514.4  Rx         0001  8  05 01 43 FD 66 5B 8D 8B 
  1561)     39516.2  Rx         0001  8  05 01 43 8E 5E 5B 9D 50 
  1562)     39518.6  Rx         0001  8  05 01 E6 FB 00 FF D7 40 
  1563)     39519.9  Rx         0001  8  05 01 81 00 64 FB 42 0A 
  1564)     39520.6  Rx         0001  8  05 01 A9 9F C0 9B D7 40 
  1565)     39521.2  Rx         0001  8  05 01 81 00 74 FB 42 0A 
  1566)     39521.7  Rx         0001  8  05 01 49 C1 FD 36 E0 1B 
  1567)     39522.0  Rx         0001  8  05 01 00 BF E6 FC EC 5A 
  1568)     39524.3  Rx         0001  2  02 01 
  1569)     39525.0  Rx         0002  6  02 01 00 42 00 00 
  1570)     39540.5  Rx         0001  8  05 01 E6 FD ED 5A 29 C1 
  1571)     39541.0  Rx         0001  8  05 01 2D 06 C9 CB 08 C2 
  1572)     39541.6  Rx         0001  8  05 01 E9 DB 08 D2 29 C1 
  1573)     39542.1  Rx         0001  8  05 01 3D FA C2 FB 0F 57 
  1574)     39542.4  Rx         0001  8  05 01 F0 CB 5C 2C E6 FD 
  1575)     39543.8  Rx         0001  8  05 01 EC 5A 5C 1B C4 DC 
  1576)     39544.4  Rx         0001  8  05 01 40 EC E6 FD 42 4A 
  1577)     39545.2  Rx         0001  8  05 01 C4 DC 42 EC F0 CB 
  1578)     39545.6  Rx         0001  8  05 01 06 FC 80 EC 06 FB 
  1579)     39547.2  Rx         0001  8  05 01 C0 FE E6 FD E0 00 
  1580)     39548.7  Rx         0001  8  05 01 5C 8D B8 DC A8 DC 
  1581)     39551.1  Rx         0001  2  02 01 
  1582)     39551.8  Rx         0002  6  02 01 00 42 00 00 
  1583)     39553.2  Rx         0001  8  05 01 5F FD B8 DC A8 CB 
  1584)     39553.7  Rx         0001  8  05 01 66 FC 00 FF B8 CB 
  1585)     39554.1  Rx         0001  8  05 01 A8 CB 76 FC 0C 00 
  1586)     39555.9  Rx         0001  8  05 01 B8 CB E6 FB 00 40 
  1587)     39556.3  Rx         0001  8  05 01 D7 40 81 00 74 FB 
  1588)     39556.5  Rx         0001  8  05 01 40 0A 0D 06 E6 FB 
  1589)     39556.7  Rx         0001  8  05 01 FF BF D7 40 81 00 
  1590)     39557.0  Rx         0001  8  05 01 64 FB 40 0A E6 FB 
  1591)     39557.2  Rx         0001  8  05 01 00 04 D7 40 81 00 
  1592)     39557.4  Rx         0001  8  05 01 74 FB 3C 0A F0 28 
  1593)     39557.5  Rx         0001  8  05 01 08 F6 FA E0 E6 37 
  1594)     39558.9  Rx         0001  2  02 01 
  1595)     39559.5  Rx         0002  6  02 01 00 42 00 00 
  1596)     39560.8  Rx         0001  8  05 01 DA E0 46 36 26 FF 
  1597)     39561.0  Rx         0001  8  05 01 0C 00 F1 97 C4 BF 
  1598)     39561.3  Rx         0001  8  05 01 02 00 C4 CF 06 00 
  1599)     39561.4  Rx         0001  8  05 01 C4 DF 04 00 C4 EF 
  1600)     39561.6  Rx         0001  8  05 01 08 00 84 0F 1C FF 
  1601)     39561.8  Rx         0001  8  05 01 F0 82 3D 05 E6 FB 
  1602)     39561.9  Rx         0001  8  05 01 1E 00 B8 BF EA 00 
  1603)     39562.2  Rx         0001  8  05 01 1E 09 47 F6 3A 00 
  1604)     39562.3  Rx         0001  8  05 01 8D 03 47 F6 3B 00 
  1605)     39562.5  Rx         0001  8  05 01 FD 05 E6 FB 22 00 
  1606)     39562.6  Rx         0001  8  05 01 B8 BF EA 00 1E 09 
  1607)     39565.0  Rx         0001  2  02 01 
  1608)     39565.6  Rx         0002  6  02 01 00 42 00 00 
  1609)     39566.9  Rx         0001  8  05 01 C0 6B 5C 2B F4 BB 
  1610)     39567.2  Rx         0001  8  05 01 00 56 3D 05 E6 FB 
  1611)     39567.3  Rx         0001  8  05 01 21 00 B8 BF EA 00 
  1612)     39567.5  Rx         0001  8  05 01 1E 09 49 90 2D 02 
  1613)     39567.7  Rx         0001  8  05 01 49 91 3D 12 49 80 
  1614)     39567.9  Rx         0001  8  05 01 2D 02 49 81 3D 0E 
  1615)     39568.2  Rx         0001  8  05 01 D4 BF 06 00 D4 CF 
  1616)     39568.5  Rx         0001  8  05 01 02 00 DA E0 60 38 
  1617)     39568.8  Rx         0001  8  05 01 ED 07 D4 BF 08 00 
  1618)     39570.7  Rx         0001  8  05 01 D4 CF 04 00 DA E0 
  1619)     39571.7  Rx         0001  8  05 01 60 38 FD 05 E6 FB 
  1620)     39574.4  Rx         0001  2  02 01 
  1621)     39575.0  Rx         0002  6  02 01 00 42 00 00 
  1622)     39576.5  Rx         0001  8  05 01 1F 00 B8 BF EA 00 
  1623)     39576.8  Rx         0001  8  05 01 1E 09 F2 FB 56 5B 
  1624)     39577.1  Rx         0001  8  05 01 46 FB 80 00 8D 05 
  1625)     39577.5  Rx         0001  8  05 01 E6 FB 2A 00 B8 BF 
  1626)     39577.8  Rx         0001  8  05 01 EA 00 1E 09 F2 FB 
  1627)     39578.1  Rx         0001  8  05 01 54 5B 46 FB 80 00 
  1628)     39578.4  Rx         0001  8  05 01 8D 05 E6 FB 2B 00 
  1629)     39578.6  Rx         0001  8  05 01 B8 BF EA 00 1E 09 
  1630)     39578.9  Rx         0001  8  05 01 DA E0 B8 36 F1 B5 
  1631)     39579.2  Rx         0001  8  05 01 09 51 E1 34 DA E0 
  1632)     39579.4  Rx         0001  8  05 01 D4 36 DA E0 6C 2E 
  1633)     39580.9  Rx         0001  2  02 01 
  1634)     39581.5  Rx         0002  6  02 01 00 42 00 00 
  1635)     39583.3  Rx         0001  8  05 01 B9 48 A9 A8 C0 AB 
  1636)     39583.5  Rx         0001  8  05 01 DA E0 74 38 C0 BD 
  1637)     39583.8  Rx         0001  8  05 01 5C 8D 66 FC FF F8 
  1638)     39583.9  Rx         0001  8  05 01 70 CD B8 CB DA E0 
  1639)     39584.1  Rx         0001  8  05 01 D2 38 66 FC FF 9F 
  1640)     39584.2  Rx         0001  8  05 01 76 FC 00 20 B8 CB 
  1641)     39584.4  Rx         0001  8  05 01 A9 B8 C0 BB 5C 2B 
  1642)     39584.5  Rx         0001  8  05 01 C0 62 5C 52 E4 6B 
  1643)     39584.7  Rx         0001  8  05 01 00 54 DA E0 D2 38 
  1644)     39585.3  Rx         0001  8  05 01 4A F4 FC 8B B8 CB 
  1645)     39585.4  Rx         0001  8  05 01 DA E0 D2 38 4A F4 
  1646)     39586.8  Rx         0001  2  02 01 
  1647)     39587.4  Rx         0002  6  02 01 00 42 00 00 
  1648)     39588.6  Rx         0001  8  05 01 FC 0C B8 CB E0 06 
  1649)     39588.7  Rx         0001  8  05 01 F0 12 E0 0A 06 F1 
  1650)     39588.9  Rx         0001  8  05 01 1C 10 16 FA 20 00 
  1651)     39589.0  Rx         0001  8  05 01 F0 B1 7C EB 5C 2A 
  1652)     39589.2  Rx         0001  8  05 01 70 AB 66 F1 FF 3F 
  1653)     39589.3  Rx         0001  8  05 01 F0 52 E0 07 06 F5 
  1654)     39589.5  Rx         0001  8  05 01 1E 10 16 F7 20 00 
  1655)     39589.7  Rx         0001  8  05 01 F0 B5 7C EB 5C 27 
  1656)     39589.9  Rx         0001  8  05 01 70 7B 66 F5 FF 3F 
  1657)     39590.1  Rx         0001  8  05 01 F0 E2 E0 09 06 FE 
  1658)     39590.3  Rx         0001  8  05 01 1A 10 16 F9 20 00 
  1659)     39591.8  Rx         0001  2  02 01 
  1660)     39592.4  Rx         0002  6  02 01 00 42 00 00 
  1661)     39593.8  Rx         0001  8  05 01 F0 BE 7C EB 5C 29 
  1662)     39594.0  Rx         0001  8  05 01 70 9B 66 FE FF 3F 
  1663)     39594.2  Rx         0001  8  05 01 F0 32 E0 08 06 F3 
  1664)     39594.4  Rx         0001  8  05 01 02 10 16 F8 20 00 
  1665)     39594.7  Rx         0001  8  05 01 F0 B3 7C EB 5C 28 
  1666)     39594.9  Rx         0001  8  05 01 70 8B 66 F3 FF 3F 
  1667)     39595.1  Rx         0001  8  05 01 F0 D2 E0 0B DA E0 
  1668)     39595.3  Rx         0001  8  05 01 B6 35 70 BC C4 BF 
  1669)     39596.1  Rx         0001  8  05 01 0A 00 66 FD FF 3F 
  1670)     39596.3  Rx         0001  8  05 01 49 90 3D 65 E6 FB 
  1671)     39596.7  Rx         0001  8  05 01 FF 0F DC 4A B8 B1 
  1672)     39598.9  Rx         0001  2  02 01 
  1673)     39599.6  Rx         0002  6  02 01 00 42 00 00 
  1674)     39601.4  Rx         0001  8  05 01 E6 FB A0 00 DC 47 
  1675)     39601.7  Rx         0001  8  05 01 B8 B5 F0 C2 F0 B6 
  1676)     39602.0  Rx         0001  8  05 01 06 FC 0E 10 16 FB 
  1677)     39602.3  Rx         0001  8  05 01 20 00 F0 5C 7C E5 
  1678)     39602.5  Rx         0001  8  05 01 5C 2B 70 B5 66 FC 
  1679)     39602.8  Rx         0001  8  05 01 FF 3F 49 80 3D 15 
  1680)     39603.6  Rx         0001  8  05 01 E6 F4 00 40 DC 49 
  1681)     39603.9  Rx         0001  8  05 01 B8 4E F0 2E D4 4F 
  1682)     39604.1  Rx         0001  8  05 01 02 00 5C 24 66 F4 
  1683)     39604.4  Rx         0001  8  05 01 FC 1F DC 49 78 4A 
  1684)     39604.7  Rx         0001  8  05 01 DA E0 E2 36 F0 2C 
  1685)     39607.1  Rx         0001  2  02 01 
  1686)     39607.8  Rx         0002  6  02 01 00 42 00 00 
  1687)     39609.2  Rx         0001  8  05 01 D4 EF 04 00 5C 2E 
  1688)     39609.4  Rx         0001  8  05 01 66 FE FC 1F 0D 30 
  1689)     39609.7  Rx         0001  8  05 01 E6 F4 00 60 DC 49 
  1690)     39609.8  Rx         0001  8  05 01 B8 4E F0 52 F0 76 
  1691)     39610.0  Rx         0001  8  05 01 06 F5 18 10 16 F7 
  1692)     39610.2  Rx         0001  8  05 01 20 00 F0 45 7C E4 
  1693)     39610.3  Rx         0001  8  05 01 5C 27 70 74 66 F5 
  1694)     39610.5  Rx         0001  8  05 01 FF 3F D4 4F 02 00 
  1695)     39610.6  Rx         0001  8  05 01 DC 47 B8 45 F0 0E 
  1696)     39611.0  Rx         0001  8  05 01 D4 4F 06 00 66 F4 
  1697)     39611.3  Rx         0001  8  05 01 FF 1F DC 49 78 48 
  1698)     39613.0  Rx         0001  2  02 01 
  1699)     39613.6  Rx         0002  6  02 01 00 42 00 00 
  1700)     39615.3  Rx         0001  8  05 01 DA E0 E2 36 06 F2 
  1701)     39615.8  Rx         0001  8  05 01 0C 10 16 F6 20 00 
  1702)     39616.0  Rx         0001  8  05 01 F0 E2 7C EE 5C 26 
  1703)     39616.1  Rx         0001  8  05 01 70 6E 66 F2 FF 3F 
  1704)     39616.3  Rx         0001  8  05 01 D4 EF 04 00 DC 46 
  1705)     39616.8  Rx         0001  8  05 01 B8 E2 F0 2C D4 EF 
  1706)     39617.0  Rx         0001  8  05 01 08 00 66 FE FF 1F 
  1707)     39617.3  Rx         0001  8  05 01 DC 5B 78 EA B8 EC 
  1708)     39617.5  Rx         0001  8  05 01 DA E0 62 34 E6 FB 
  1709)     39617.8  Rx         0001  8  05 01 19 00 DC 4A B8 B1 
  1710)     39618.1  Rx         0001  8  05 01 0D 0E E6 FB FF 0F 
  1711)     39620.0  Rx         0001  2  02 01 
  1712)     39620.6  Rx         0002  6  02 01 00 42 00 00 
  1713)     39622.1  Rx         0001  8  05 01 DC 4A B8 B1 E6 FB 
  1714)     39622.4  Rx         0001  8  05 01 20 06 DC 47 B8 B5 
  1715)     39622.7  Rx         0001  8  05 01 E6 FB 00 40 DC 49 
  1716)     39622.9  Rx         0001  8  05 01 B8 BE DA E0 62 34 
  1717)     39623.0  Rx         0001  8  05 01 A8 2F 06 FF 0C 00 
  1718)     39623.2  Rx         0001  8  05 01 FA E0 06 36 88 6F 
  1719)     39623.5  Rx         0001  8  05 01 88 8F 26 FF 80 00 
  1720)     39623.8  Rx         0001  8  05 01 E1 08 E7 FB FF 00 
  1721)     39624.0  Rx         0001  8  05 01 F3 FA 23 5B 29 45 
  1722)     39624.2  Rx         0001  8  05 01 01 44 E0 0E C2 FB 
  1723)     39624.4  Rx         0001  8  05 01 0E 5B 5C 1B 46 FB 
  1724)     39625.8  Rx         0001  2  02 01 
  1725)     39626.4  Rx         0002  6  02 01 00 42 00 00 
  1726)     39627.9  Rx         0001  8  05 01 40 00 AD 22 43 8E 
  1727)     39628.2  Rx         0001  8  05 01 0F 5B 2D 1B F7 8E 
  1728)     39628.9  Rx         0001  8  05 01 0F 5B F1 98 E6 FB 
  1729)     39629.4  Rx         0001  8  05 01 40 00 00 BF F3 F5 
  1730)     39630.0  Rx         0001  8  05 01 0E 5B 0D 0F C0 9C 
  1731)     39630.2  Rx         0001  8  05 01 5C 1C F0 DC 02 FD 
  1732)     39630.4  Rx         0001  8  05 01 0C 5B 08 C1 00 CF 
  1733)     39631.2  Rx         0001  8  05 01 A8 3D 7C 83 B9 6B 
  1734)     39633.0  Rx         0001  8  05 01 08 B2 A8 3D E4 6C 
  1735)     39633.9  Rx         0001  8  05 01 40 00 09 91 41 95 
  1736)     39634.5  Rx         0001  8  05 01 8D EF 0D 09 E1 09 
  1737)     39636.2  Rx         0001  2  02 01 
  1738)     39636.8  Rx         0002  6  02 01 00 42 00 00 
  1739)     39638.1  Rx         0001  8  05 01 E4 9F 40 00 0D 05 
  1740)     39638.3  Rx         0001  8  05 01 E1 09 E4 9F 40 00 
  1741)     39638.5  Rx         0001  8  05 01 E6 FE 3D 00 49 A0 
  1742)     39638.6  Rx         0001  8  05 01 2D 03 F4 BF 41 00 
  1743)     39638.9  Rx         0001  8  05 01 E1 0A F3 F9 61 5B 
  1744)     39639.2  Rx         0001  8  05 01 F3 F5 62 5B F2 FB 
  1745)     39639.4  Rx         0001  8  05 01 D2 5A 48 B0 ED 02 
  1746)     39639.6  Rx         0001  8  05 01 49 90 2D 45 49 90 
  1747)     39639.9  Rx         0001  8  05 01 2D 39 E1 29 B9 9F 
  1748)     39640.1  Rx         0001  8  05 01 F2 FC D0 5A F0 4C 
  1749)     39640.3  Rx         0001  8  05 01 7C 84 E4 8F 01 00 
  1750)     39641.9  Rx         0001  2  02 01 
  1751)     39642.5  Rx         0002  6  02 01 00 42 00 00 
  1752)     39644.0  Rx         0001  8  05 01 F0 4C E4 8F 02 00 
  1753)     39644.5  Rx         0001  8  05 01 E1 38 E1 09 E1 0B 
  1754)     39644.7  Rx         0001  8  05 01 3A FB F5 08 F0 DB 
  1755)     39645.2  Rx         0001  8  05 01 F2 F8 D4 5A 0D 09 
  1756)     39645.6  Rx         0001  8  05 01 C0 9B 00 BF 99 78 
  1757)     39646.0  Rx         0001  8  05 01 09 91 E4 7B 03 00 
  1758)     39646.4  Rx         0001  8  05 01 09 81 28 D1 08 C1 
  1759)     39646.6  Rx         0001  8  05 01 C0 BB 40 DB FD 0F 
  1760)     39646.9  Rx         0001  8  05 01 49 90 2D 04 F0 BC 
  1761)     39647.2  Rx         0001  8  05 01 66 FB 1F 00 2D 09 
  1762)     39648.4  Rx         0001  8  05 01 9A F4 05 80 F0 BC 
  1763)     39650.1  Rx         0001  2  02 01 
  1764)     39650.8  Rx         0002  6  02 01 00 42 00 00 
  1765)     39652.2  Rx         0001  8  05 01 08 B1 66 FB 1F 00 
  1766)     39652.5  Rx         0001  8  05 01 2D 02 41 84 8D E5 
  1767)     39652.9  Rx         0001  8  05 01 F6 F8 D4 5A F6 FC 
  1768)     39653.5  Rx         0001  8  05 01 D0 5A F6 FD D2 5A 
  1769)     39653.9  Rx         0001  8  05 01 E1 09 48 D0 3D 55 
  1770)     39654.2  Rx         0001  8  05 01 0D 23 47 FB FF 00 
  1771)     39654.6  Rx         0001  8  05 01 2D 4A 8A F5 48 80 
  1772)     39654.8  Rx         0001  8  05 01 E1 69 B9 9F E1 18 
  1773)     39655.0  Rx         0001  8  05 01 E1 19 0D 4A F2 FD 
  1774)     39656.0  Rx         0001  8  05 01 D8 5A 48 D0 ED 02 
  1775)     39656.6  Rx         0001  8  05 01 49 50 2D 44 49 50 
  1776)     39658.2  Rx         0001  2  02 01 
  1777)     39658.9  Rx         0002  6  02 01 00 42 00 00 
  1778)     39660.4  Rx         0001  8  05 01 2D 14 F2 FB DA 5A 
  1779)     39660.8  Rx         0001  8  05 01 E6 FC 43 00 00 CF 
  1780)     39661.4  Rx         0001  8  05 01 F3 FB 63 5B 2D 04 
  1781)     39661.9  Rx         0001  8  05 01 D9 BC 08 C1 29 B1 
  1782)     39662.3  Rx         0001  8  05 01 3D FC F6 FB DA 5A 
  1783)     39663.5  Rx         0001  8  05 01 E1 05 48 D0 3D 31 
  1784)     39664.3  Rx         0001  8  05 01 F7 8E DC 5A 0D 2E 
  1785)     39664.8  Rx         0001  8  05 01 47 FB FF 00 2D 24 
  1786)     39665.5  Rx         0001  8  05 01 8A F5 22 80 E1 38 
  1787)     39666.0  Rx         0001  8  05 01 B9 8F F2 F3 D6 5A 
  1788)     39666.4  Rx         0001  8  05 01 F0 63 7C 86 E4 CF 
  1789)     39668.6  Rx         0001  2  02 01 
  1790)     39669.2  Rx         0002  6  02 01 00 42 00 00 
  1791)     39670.6  Rx         0001  8  05 01 01 00 E4 6F 02 00 
  1792)     39670.9  Rx         0001  8  05 01 E1 0B F0 BD 0D 08 
  1793)     39671.4  Rx         0001  8  05 01 C0 BC 00 CF E1 05 
  1794)     39671.7  Rx         0001  8  05 01 09 B1 E4 5C 03 00 
  1795)     39672.1  Rx         0001  8  05 01 09 81 28 B1 48 B0 
  1796)     39672.6  Rx         0001  8  05 01 FD 02 41 84 8D F4 
  1797)     39672.9  Rx         0001  8  05 01 F6 FB D8 5A C0 BB 
  1798)     39673.1  Rx         0001  8  05 01 04 FB D6 5A E1 15 
  1799)     39673.8  Rx         0001  8  05 01 F7 FB 63 5B 0D 07 
  1800)     39674.2  Rx         0001  8  05 01 E1 58 B9 8F E1 08 
  1801)     39674.7  Rx         0001  8  05 01 E4 8F 01 00 E1 1A 
  1802)     39676.5  Rx         0001  2  02 01 
  1803)     39677.1  Rx         0002  6  02 01 00 42 00 00 
  1804)     39678.6  Rx         0001  8  05 01 E1 28 F7 F5 62 5B 
  1805)     39679.5  Rx         0001  8  05 01 F7 F9 61 5B E0 08 
  1806)     39683.3  Rx         0001  8  05 01 F1 98 29 91 47 F9 
  1807)     39684.0  Rx         0001  8  05 01 40 00 9D 2B E1 0B 
  1808)     39684.3  Rx         0001  8  05 01 49 80 FD 18 F0 BF 
  1809)     39684.9  Rx         0001  8  05 01 C0 B2 0E F2 F0 C2 
  1810)     39685.4  Rx         0001  8  05 01 02 FC 08 5B 99 9B 
  1811)     39686.1  Rx         0001  8  05 01 C0 9D 9A F5 09 80 
  1812)     39686.9  Rx         0001  8  05 01 A8 3C 66 F3 00 FF 
  1813)     39687.5  Rx         0001  8  05 01 B8 3C 02 F2 08 5B 
  1814)     39687.9  Rx         0001  8  05 01 78 DA B8 D2 0D 02 
  1815)     39689.8  Rx         0001  2  02 01 
  1816)     39690.4  Rx         0002  6  02 01 00 42 00 00 
  1817)     39691.8  Rx         0001  8  05 01 5C 8D B8 DC 09 B1 
  1818)     39692.1  Rx         0001  8  05 01 41 B8 8D E9 C0 B4 
  1819)     39692.3  Rx         0001  8  05 01 7C 14 E1 05 4A F5 
  1820)     39692.5  Rx         0001  8  05 01 F2 88 01 85 F7 F8 
  1821)     39694.0  Rx         0001  8  05 01 0A 5B E1 19 F7 F9 
  1822)     39695.6  Rx         0001  8  05 01 0B 5B E7 F9 20 00 
  1823)     39696.9  Rx         0001  8  05 01 F7 F9 0E 5B 0D 06 
  1824)     39698.6  Rx         0001  8  05 01 F7 8E 0B 5B 49 80 
  1825)     39700.0  Rx         0001  8  05 01 FD 02 E6 F8 3D 00 
  1826)     39701.9  Rx         0001  8  05 01 F0 2E 70 28 F7 FA 
  1827)     39703.3  Rx         0001  8  05 01 23 5B 06 FF 80 00 
  1828)     39705.8  Rx         0001  2  02 01 
  1829)     39706.4  Rx         0002  6  02 01 00 42 00 00 
  1830)     39707.8  Rx         0001  8  05 01 98 8F 98 6F DB 00 
  1831)     39708.3  Rx         0001  8  05 01 26 FF 0E 00 E1 1C 
  1832)     39708.7  Rx         0001  8  05 01 E1 0D DA E0 44 25 
  1833)     39709.4  Rx         0001  8  05 01 F1 F4 DA E0 4E 27 
  1834)     39709.8  Rx         0001  8  05 01 DA E0 26 39 DA E0 
  1835)     39710.1  Rx         0001  8  05 01 3A 39 DA E0 2E 39 
  1836)     39710.5  Rx         0001  8  05 01 E1 39 F7 F9 69 5B 
  1837)     39710.8  Rx         0001  8  05 01 DA E0 AA 1B DA E0 
  1838)     39711.1  Rx         0001  8  05 01 88 38 E6 F2 FF FF 
  1839)     39711.4  Rx         0001  8  05 01 E6 FB 7C 00 F0 32 
  1840)     39711.7  Rx         0001  8  05 01 E0 0C DA E0 2E 2A 
  1841)     39713.4  Rx         0001  2  02 01 
  1842)     39714.1  Rx         0002  6  02 01 00 42 00 00 
  1843)     39716.8  Rx         0001  8  05 01 DA E0 9C 38 06 FC 
  1844)     39717.4  Rx         0001  8  05 01 7C 00 DA E0 D6 35 
  1845)     39717.7  Rx         0001  8  05 01 40 2E 30 3C 3D 0D 
  1846)     39718.1  Rx         0001  8  05 01 E1 19 DA E0 92 37 
  1847)     39718.4  Rx         0001  8  05 01 70 CE 2D 09 DA E0 
  1848)     39718.7  Rx         0001  8  05 01 92 37 46 FE FF FF 
  1849)     39719.4  Rx         0001  8  05 01 36 FC FF FF 3D 03 
  1850)     39719.6  Rx         0001  8  05 01 0D 01 E1 09 E1 1D 
  1851)     39719.9  Rx         0001  8  05 01 49 F0 2D 02 49 90 
  1852)     39720.2  Rx         0001  8  05 01 3D 27 F2 FC 38 5B 
  1853)     39720.4  Rx         0001  8  05 01 F2 FD 3A 5B 06 FC 
  1854)     39722.4  Rx         0001  2  02 01 
  1855)     39723.0  Rx         0002  6  02 01 00 42 00 00 
  1856)     39724.5  Rx         0001  8  05 01 24 00 DA E0 9E 34 
  1857)     39725.0  Rx         0001  8  05 01 F2 FC 38 5B F2 FD 
  1858)     39726.4  Rx         0001  8  05 01 3A 5B 06 FC 20 00 
  1859)     39726.8  Rx         0001  8  05 01 DA E0 0C 37 F2 F4 
  1860)     39727.3  Rx         0001  8  05 01 38 5B F2 F5 3A 5B 
  1861)     39727.6  Rx         0001  8  05 01 06 F4 10 00 18 50 
  1862)     39728.6  Rx         0001  8  05 01 DA E0 B2 34 E6 F2 
  1863)     39728.9  Rx         0001  8  05 01 B2 5A F2 F4 38 5B 
  1864)     39729.2  Rx         0001  8  05 01 F2 F5 3A 5B 06 F4 
  1865)     39730.1  Rx         0001  8  05 01 18 00 18 50 DA E0 
  1866)     39731.0  Rx         0001  8  05 01 B2 34 F7 8E BF 5A 
  1867)     39733.5  Rx         0001  2  02 01 
  1868)     39734.1  Rx         0002  6  02 01 00 42 00 00 
  1869)     39735.5  Rx         0001  8  05 01 0D 2B DA E0 9C 38 
  1870)     39735.9  Rx         0001  8  05 01 06 FC 58 00 DA E0 
  1871)     39736.4  Rx         0001  8  05 01 9E 34 DA E0 9C 38 
  1872)     39736.6  Rx         0001  8  05 01 06 FC 54 00 DA E0 
  1873)     39736.9  Rx         0001  8  05 01 0C 37 DA E0 88 38 
  1874)     39737.2  Rx         0001  8  05 01 06 F4 3C 00 18 50 
  1875)     39737.5  Rx         0001  8  05 01 DA E0 B2 34 E6 F2 
  1876)     39737.9  Rx         0001  8  05 01 B2 5A DA E0 88 38 
  1877)     39738.2  Rx         0001  8  05 01 06 F4 44 00 18 50 
  1878)     39738.4  Rx         0001  8  05 01 DA E0 B2 34 F2 FB 
  1879)     39738.7  Rx         0001  8  05 01 34 5B F2 FC 36 5B 
  1880)     39740.9  Rx         0001  2  02 01 
  1881)     39741.6  Rx         0002  6  02 01 00 42 00 00 
  1882)     39742.9  Rx         0001  8  05 01 06 FB 20 00 18 C0 
  1883)     39746.4  Rx         0001  8  05 01 DC 0C A8 4B 08 B2 
  1884)     39746.7  Rx         0001  8  05 01 18 C0 DC 0C A8 BB 
  1885)     39747.0  Rx         0001  8  05 01 F7 F8 BF 5A DA E0 
  1886)     39747.6  Rx         0001  8  05 01 38 20 F0 2F DA E0 
  1887)     39748.5  Rx         0001  8  05 01 FC 2C 49 41 3D 04 
  1888)     39748.8  Rx         0001  8  05 01 F0 2F DA E0 B0 2A 
  1889)     39749.1  Rx         0001  8  05 01 0D 02 E7 F4 FF 00 
  1890)     39749.4  Rx         0001  8  05 01 F3 F9 69 5B 49 94 
  1891)     39749.6  Rx         0001  8  05 01 3D 08 47 F4 11 00 
  1892)     39749.9  Rx         0001  8  05 01 2D 05 47 F4 14 00 
  1893)     39751.4  Rx         0001  2  02 01 
  1894)     39752.0  Rx         0002  6  02 01 00 42 00 00 
  1895)     39753.3  Rx         0001  8  05 01 2D 02 E7 F4 FF 00 
  1896)     39753.5  Rx         0001  8  05 01 C0 4B 28 B2 46 FB 
  1897)     39753.7  Rx         0001  8  05 01 17 00 ED 63 5C 1B 
  1898)     39753.9  Rx         0001  8  05 01 D4 BB 56 59 9C 0B 
  1899)     39754.2  Rx         0001  8  05 01 DA E0 8E 2C 0D 5C 
  1900)     39754.4  Rx         0001  8  05 01 DA E0 1E 39 0D 59 
  1901)     39756.1  Rx         0001  8  05 01 F0 2F DA E0 5A 2F 
  1902)     39757.9  Rx         0001  8  05 01 0D 55 F0 2F DA E0 
  1903)     39762.5  Rx         0001  8  05 01 B4 33 0D 51 F0 2F 
  1904)     39763.5  Rx         0001  8  05 01 DA E0 5C 30 0D 4D 
  1905)     39764.7  Rx         0001  8  05 01 F0 2F DA E0 3A 2E 
  1906)     39766.5  Rx         0001  2  02 01 
  1907)     39767.1  Rx         0002  6  02 01 00 42 00 00 
  1908)     39768.4  Rx         0001  8  05 01 0D 49 DA E0 6A 24 
  1909)     39768.6  Rx         0001  8  05 01 0D 46 F0 2F F1 6D 
  1910)     39769.0  Rx         0001  8  05 01 DA E0 2A 18 0D 41 
  1911)     39769.1  Rx         0001  8  05 01 F0 2F DA E0 88 22 
  1912)     39769.3  Rx         0001  8  05 01 0D 3D DA E0 AA 37 
  1913)     39769.5  Rx         0001  8  05 01 DA E0 D0 2E 0D 38 
  1914)     39769.7  Rx         0001  8  05 01 F0 2F DA E0 B0 25 
  1915)     39770.0  Rx         0001  8  05 01 0D 34 DA E0 AA 37 
  1916)     39770.2  Rx         0001  8  05 01 DA E0 FC 23 0D 2F 
  1917)     39770.6  Rx         0001  8  05 01 F0 2F DA E0 70 2A 
  1918)     39771.0  Rx         0001  8  05 01 0D 2B F0 2F F1 6D 
  1919)     39772.6  Rx         0001  2  02 01 
  1920)     39773.3  Rx         0002  6  02 01 00 42 00 00 
  1921)     39774.7  Rx         0001  8  05 01 DA E0 6A 2B 0D 26 
  1922)     39775.3  Rx         0001  8  05 01 F0 2F F1 6D DA E0 
  1923)     39775.7  Rx         0001  8  05 01 D2 2D 0D 21 F0 2F 
  1924)     39776.1  Rx         0001  8  05 01 DA E0 9E 2D 0D 1D 
  1925)     39776.3  Rx         0001  8  05 01 F0 2F DA E0 EC 29 
  1926)     39776.6  Rx         0001  8  05 01 0D 19 F0 2F DA E0 
  1927)     39776.8  Rx         0001  8  05 01 1A 2C 0D 15 F0 2F 
  1928)     39777.0  Rx         0001  8  05 01 DA E0 E0 2B 0D 11 
  1929)     39777.1  Rx         0001  8  05 01 F0 2F DA E0 A6 2B 
  1930)     39777.3  Rx         0001  8  05 01 F1 C4 0D 0C F0 2F 
  1931)     39777.5  Rx         0001  8  05 01 DA E0 90 1F 0D 08 
  1932)     39779.5  Rx         0001  2  02 01 
  1933)     39780.1  Rx         0002  6  02 01 00 42 00 00 
  1934)     39781.8  Rx         0001  8  05 01 F0 2F DA E0 CA 33 
  1935)     39782.3  Rx         0001  8  05 01 0D 04 F0 2F DA E0 
  1936)     39782.6  Rx         0001  8  05 01 8A 23 F1 D4 49 C1 
  1937)     39782.9  Rx         0001  8  05 01 EA 30 7A 0C DA E0 
  1938)     39783.1  Rx         0001  8  05 01 A6 29 EA 00 7A 0C 
  1939)     39783.4  Rx         0001  8  05 01 DA E0 46 36 28 F6 
  1940)     39783.6  Rx         0001  8  05 01 F1 24 F1 35 B8 3F 
  1941)     39783.7  Rx         0001  8  05 01 F1 C8 E4 9F 02 00 
  1942)     39783.9  Rx         0001  8  05 01 E0 0B C4 BF 04 00 
  1943)     39784.0  Rx         0001  8  05 01 47 F2 3A 00 8D 03 
  1944)     39784.2  Rx         0001  8  05 01 47 F2 3B 00 FD 04 
  1945)     39785.4  Rx         0001  2  02 01 
  1946)     39786.1  Rx         0002  6  02 01 00 42 00 00 
  1947)     39787.5  Rx         0001  8  05 01 E6 FB 22 00 EA 00 
  1948)     39787.9  Rx         0001  8  05 01 98 0F A8 BF 46 FB 
  1949)     39788.2  Rx         0001  8  05 01 7D 00 8D 15 46 FB 
  1950)     39789.0  Rx         0001  8  05 01 E8 03 ED 12 F1 93 
  1951)     39789.3  Rx         0001  8  05 01 29 91 49 92 8D 0E 
  1952)     39789.6  Rx         0001  8  05 01 47 F3 10 00 ED 0B 
  1953)     39789.8  Rx         0001  8  05 01 F1 9C 29 91 49 91 
  1954)     39790.3  Rx         0001  8  05 01 8D 07 47 FC 08 00 
  1955)     39790.6  Rx         0001  8  05 01 ED 04 F4 9F 02 00 
  1956)     39790.7  Rx         0001  8  05 01 49 94 FD 04 E6 FB 
  1957)     39790.9  Rx         0001  8  05 01 1F 00 EA 00 98 0F 
  1958)     39792.5  Rx         0001  2  02 01 
  1959)     39793.1  Rx         0002  6  02 01 00 42 00 00 
  1960)     39794.5  Rx         0001  8  05 01 43 8E 64 5B 3D 3B 
  1961)     39794.7  Rx         0001  8  05 01 DA E0 6E 37 E6 0F 
  1962)     39794.9  Rx         0001  8  05 01 03 00 CC 00 CC 00 
  1963)     39795.1  Rx         0001  8  05 01 CC 00 E6 FB 40 82 
  1964)     39795.3  Rx         0001  8  05 01 D7 40 80 00 F6 FB 
  1965)     39795.5  Rx         0001  8  05 01 0C 00 E6 FB 41 00 
  1966)     39796.0  Rx         0001  8  05 01 D7 70 80 00 F6 FB 
  1967)     39796.2  Rx         0001  8  05 01 00 02 F6 FB 00 03 
  1968)     39796.4  Rx         0001  8  05 01 F6 FB 00 04 F6 FB 
  1969)     39796.6  Rx         0001  8  05 01 00 05 D7 50 80 00 
  1970)     39796.8  Rx         0001  8  05 01 F6 FB 00 06 F6 FB 
  1971)     39799.1  Rx         0001  2  02 01 
  1972)     39799.7  Rx         0002  6  02 01 00 42 00 00 
  1973)     39801.2  Rx         0001  8  05 01 00 07 E1 14 E1 05 
  1974)     39801.6  Rx         0001  8  05 01 E1 06 DA E0 32 2D 
  1975)     39802.1  Rx         0001  8  05 01 E6 FB BF FF D7 70 
  1976)     39802.4  Rx         0001  8  05 01 80 00 64 FB 00 02 
  1977)     39802.7  Rx         0001  8  05 01 64 FB 00 03 64 FB 
  1978)     39803.1  Rx         0001  8  05 01 00 04 64 FB 00 05 
  1979)     39803.9  Rx         0001  8  05 01 D7 50 80 00 64 FB 
  1980)     39804.2  Rx         0001  8  05 01 00 06 64 FB 00 07 
  1981)     39804.6  Rx         0001  8  05 01 DA E0 C0 32 E1 19 
  1982)     39804.9  Rx         0001  8  05 01 F7 F9 64 5B C0 28 
  1983)     39805.2  Rx         0001  8  05 01 5C 28 06 F8 00 56 
  1984)     39806.6  Rx         0001  2  02 01 
  1985)     39807.3  Rx         0002  6  02 01 00 42 00 00 
  1986)     39809.0  Rx         0001  8  05 01 A9 98 EA 30 94 0F 
  1987)     39809.3  Rx         0001  8  05 01 E1 0D 47 F2 3B 00 
  1988)     39809.7  Rx         0001  8  05 01 3D 01 E1 1D 09 D3 
  1989)     39810.1  Rx         0001  8  05 01 C0 D0 5C 80 E0 07 
  1990)     39810.7  Rx         0001  8  05 01 F0 90 E0 0A 06 F9 
  1991)     39811.2  Rx         0001  8  05 01 00 02 DA E0 D8 34 
  1992)     39811.5  Rx         0001  8  05 01 E6 FB 41 00 DC 4A 
  1993)     39811.8  Rx         0001  8  05 01 B8 B9 F0 B0 E0 0C 
  1994)     39812.1  Rx         0001  8  05 01 06 FB 08 02 DA E0 
  1995)     39812.4  Rx         0001  8  05 01 0E 35 DC 4C B8 7B 
  1996)     39812.7  Rx         0001  8  05 01 49 30 3D 01 E1 53 
  1997)     39814.6  Rx         0001  2  02 01 
  1998)     39815.3  Rx         0002  6  02 01 00 42 00 00 
  1999)     39816.7  Rx         0001  8  05 01 49 C0 3D 01 E1 3C 
  2000)     39816.9  Rx         0001  8  05 01 F4 9F 02 00 3D 03 
  2001)     39817.2  Rx         0001  8  05 01 E1 29 E4 9F 02 00 
  2002)     39818.6  Rx         0001  8  05 01 C0 3C C0 CD 00 CD 
  2003)     39821.6  Rx         0001  8  05 01 08 C1 A8 DF 1B DC 
  2004)     39823.9  Rx         0001  8  05 01 E6 FB C8 AF F2 FC 
  2005)     39825.1  Rx         0001  8  05 01 0E FE F6 FB 0E FE 
  2006)     39826.5  Rx         0001  8  05 01 5B CC C0 CC 28 C1 
  2007)     39827.1  Rx         0001  8  05 01 5C CC F0 D7 F2 F4 
  2008)     39827.5  Rx         0001  8  05 01 0E FE 29 81 67 F8 
  2009)     39828.1  Rx         0001  8  05 01 3F 00 C0 8B 70 BC 
  2010)     39829.5  Rx         0001  2  02 01 
  2011)     39830.1  Rx         0002  6  02 01 00 42 00 00 
  2012)     39831.7  Rx         0001  8  05 01 C0 3C 28 C1 5C 8C 
  2013)     39832.3  Rx         0001  8  05 01 70 BC F4 9F 02 00 
  2014)     39832.8  Rx         0001  8  05 01 C0 9C 28 C1 5C 6C 
  2015)     39833.2  Rx         0001  8  05 01 70 BC F0 C0 06 FC 
  2016)     39833.5  Rx         0001  8  05 01 10 02 DA E0 32 35 
  2017)     39833.9  Rx         0001  8  05 01 DC 4D B8 BC 47 F2 
  2018)     39834.2  Rx         0001  8  05 01 3B 00 3D 08 E7 F4 
  2019)     39834.7  Rx         0001  8  05 01 72 00 E1 A5 DA E0 
  2020)     39835.0  Rx         0001  8  05 01 56 36 E7 F4 34 00 
  2021)     39835.4  Rx         0001  8  05 01 0D 07 E7 F4 32 00 
  2022)     39836.2  Rx         0001  8  05 01 E1 A5 DA E0 56 36 
  2023)     39837.6  Rx         0001  2  02 01 
  2024)     39838.2  Rx         0002  6  02 01 00 42 00 00 
  2025)     39839.7  Rx         0001  8  05 01 E7 F4 33 00 E1 05 
  2026)     39840.0  Rx         0001  8  05 01 DA E0 56 36 C0 DB 
  2027)     39840.3  Rx         0001  8  05 01 5C 8B E0 0C 06 FB 
  2028)     39840.6  Rx         0001  8  05 01 0C 02 DA E0 0E 35 
  2029)     39840.9  Rx         0001  8  05 01 E0 0E DC 4C B8 EB 
  2030)     39841.2  Rx         0001  8  05 01 F0 B0 F0 C7 06 FB 
  2031)     39841.4  Rx         0001  8  05 01 16 02 DA E0 0E 35 
  2032)     39841.7  Rx         0001  8  05 01 E6 FD 80 00 06 F0 
  2033)     39842.0  Rx         0001  8  05 01 14 02 16 F7 20 00 
  2034)     39842.2  Rx         0001  8  05 01 DC 4C B8 DB F0 B0 
  2035)     39842.7  Rx         0001  8  05 01 66 F0 FF 3F 7C EB 
  2036)     39844.7  Rx         0001  2  02 01 
  2037)     39845.3  Rx         0002  6  02 01 00 42 00 00 
  2038)     39847.2  Rx         0001  8  05 01 5C 27 70 7B DC 47 
  2039)     39848.0  Rx         0001  8  05 01 B8 E0 DC 4A A8 B9 
  2040)     39850.9  Rx         0001  8  05 01 66 FB BE FF DC 4A 
  2041)     39851.4  Rx         0001  8  05 01 B8 B9 E7 F9 15 00 
  2042)     39851.8  Rx         0001  8  05 01 B9 98 0D 04 E6 FB 
  2043)     39852.1  Rx         0001  8  05 01 20 00 C4 BF 04 00 
  2044)     39853.9  Rx         0001  8  05 01 D4 2F 04 00 08 F6 
  2045)     39854.7  Rx         0001  8  05 01 FA E0 06 36 DA E0 
  2046)     39855.1  Rx         0001  8  05 01 26 36 26 FF 0C 00 
  2047)     39855.5  Rx         0001  8  05 01 F0 82 F0 93 E4 8F 
  2048)     39855.8  Rx         0001  8  05 01 08 00 E0 0B C4 BF 
  2049)     39857.6  Rx         0001  2  02 01 
  2050)     39858.3  Rx         0002  6  02 01 00 42 00 00 
  2051)     39859.8  Rx         0001  8  05 01 0A 00 48 81 38 30 
  2052)     39860.1  Rx         0001  8  05 01 8D 0D F0 B9 46 F8 
  2053)     39860.3  Rx         0001  8  05 01 40 42 36 FB 0F 00 
  2054)     39860.7  Rx         0001  8  05 01 ED 07 F4 9F 08 00 
  2055)     39860.9  Rx         0001  8  05 01 49 91 8D 03 47 F9 
  2056)     39861.8  Rx         0001  8  05 01 10 00 FD 06 E6 FB 
  2057)     39862.0  Rx         0001  8  05 01 1F 00 C4 BF 0A 00 
  2058)     39862.2  Rx         0001  8  05 01 EA 00 82 11 43 8E 
  2059)     39862.3  Rx         0001  8  05 01 65 5B EA 30 82 11 
  2060)     39862.5  Rx         0001  8  05 01 DA E0 6E 37 E0 3B 
  2061)     39862.9  Rx         0001  8  05 01 D7 40 81 00 F6 FB 
  2062)     39864.8  Rx         0001  2  02 01 
  2063)     39865.4  Rx         0002  6  02 01 00 42 00 00 
  2064)     39866.7  Rx         0001  8  05 01 0C 0A CC 00 CC 00 
  2065)     39866.9  Rx         0001  8  05 01 E0 1B D7 40 81 00 
  2066)     39867.2  Rx         0001  8  05 01 F6 FB 10 0A F0 28 
  2067)     39867.3  Rx         0001  8  05 01 F0 39 DA E0 18 26 
  2068)     39867.5  Rx         0001  8  05 01 E6 F5 00 45 E0 04 
  2069)     39867.6  Rx         0001  8  05 01 DA E0 D0 1E E6 F4 
  2070)     39867.8  Rx         0001  8  05 01 80 96 E6 F5 98 4C 
  2071)     39867.9  Rx         0001  8  05 01 DA E0 16 19 C4 2F 
  2072)     39868.2  Rx         0001  8  05 01 02 00 B8 3F E6 F7 
  2073)     39868.3  Rx         0001  8  05 01 00 C0 E6 F9 7F 44 
  2074)     39868.5  Rx         0001  8  05 01 E0 0B C4 BF 04 00 
  2075)     39870.6  Rx         0001  2  02 01 
  2076)     39871.2  Rx         0002  6  02 01 00 42 00 00 
  2077)     39872.5  Rx         0001  8  05 01 C4 BF 06 00 E0 18 
  2078)     39872.6  Rx         0001  8  05 01 F0 28 DA E0 16 30 
  2079)     39872.9  Rx         0001  8  05 01 D4 4F 02 00 A8 5F 
  2080)     39873.0  Rx         0001  8  05 01 DA E0 16 19 DA E0 
  2081)     39873.2  Rx         0001  8  05 01 2C 2B F0 A2 28 21 
  2082)     39873.6  Rx         0001  8  05 01 46 F2 00 04 9D 20 
  2083)     39874.4  Rx         0001  8  05 01 F0 28 DA E0 16 30 
  2084)     39874.5  Rx         0001  8  05 01 F0 B2 F0 C3 F0 2A 
  2085)     39874.8  Rx         0001  8  05 01 DA E0 16 30 F0 42 
  2086)     39874.9  Rx         0001  8  05 01 F0 53 F0 2B F0 3C 
  2087)     39875.0  Rx         0001  8  05 01 DA E0 16 19 D4 4F 
  2088)     39876.6  Rx         0001  2  02 01 
  2089)     39877.2  Rx         0002  6  02 01 00 42 00 00 
  2090)     39878.6  Rx         0001  8  05 01 02 00 A8 5F DA E0 
  2091)     39878.7  Rx         0001  8  05 01 86 2F F0 B2 F0 47 
  2092)     39878.9  Rx         0001  8  05 01 F0 59 DA E0 16 29 
  2093)     39879.0  Rx         0001  8  05 01 F1 44 3D 06 F0 7B 
  2094)     39879.2  Rx         0001  8  05 01 F0 93 C4 8F 06 00 
  2095)     39879.3  Rx         0001  8  05 01 C4 AF 04 00 86 F8 
  2096)     39879.5  Rx         0001  8  05 01 FF 03 8D CE D4 BF 
  2097)     39879.6  Rx         0001  8  05 01 04 00 48 B0 FD 11 
  2098)     39879.8  Rx         0001  8  05 01 D7 40 81 00 F6 8E 
  2099)     39879.9  Rx         0001  8  05 01 1C 0A 28 B1 EF FB 
  2100)     39880.1  Rx         0001  8  05 01 D7 40 81 00 F6 FB 
  2101)     39882.7  Rx         0001  2  02 01 
  2102)     39883.3  Rx         0002  6  02 01 00 42 00 00 
  2103)     39885.1  Rx         0001  8  05 01 1E 0A D4 BF 06 00 
  2104)     39885.3  Rx         0001  8  05 01 FF FB D7 40 81 00 
  2105)     39885.6  Rx         0001  8  05 01 F6 FB 04 0A E7 F4 
  2106)     39885.9  Rx         0001  8  05 01 61 00 E1 B5 DA E0 
  2107)     39886.0  Rx         0001  8  05 01 56 36 E7 F4 62 00 
  2108)     39886.2  Rx         0001  8  05 01 E1 B5 DA E0 AA 36 
  2109)     39886.4  Rx         0001  8  05 01 E6 FB 14 00 D7 40 
  2110)     39886.5  Rx         0001  8  05 01 81 00 F6 FB 20 0A 
  2111)     39887.2  Rx         0001  8  05 01 E6 FB 03 01 D7 40 
  2112)     39887.3  Rx         0001  8  05 01 81 00 F6 FB 30 0A 
  2113)     39887.6  Rx         0001  8  05 01 F4 9F 08 00 C0 9B 
  2114)     39889.2  Rx         0001  2  02 01 
  2115)     39889.8  Rx         0002  6  02 01 00 42 00 00 
  2116)     39891.2  Rx         0001  8  05 01 28 B1 5C 8B 76 FB 
  2117)     39891.7  Rx         0001  8  05 01 3F 00 D7 40 81 00 
  2118)     39892.1  Rx         0001  8  05 01 F6 FB 32 0A E6 FB 
  2119)     39892.6  Rx         0001  8  05 01 01 05 D7 40 81 00 
  2120)     39892.8  Rx         0001  8  05 01 F6 FB 3C 0A E6 FB 
  2121)     39893.1  Rx         0001  8  05 01 47 0F D7 50 81 00 
  2122)     39893.2  Rx         0001  8  05 01 F6 FB 40 0A F6 8E 
  2123)     39893.4  Rx         0001  8  05 01 10 0B E6 FB 00 05 
  2124)     39893.6  Rx         0001  8  05 01 D7 40 81 00 F6 FB 
  2125)     39894.1  Rx         0001  8  05 01 12 0B E6 FC 20 00 
  2126)     39894.7  Rx         0001  8  05 01 D7 70 81 00 F6 FC 
  2127)     39896.1  Rx         0001  2  02 01 
  2128)     39896.7  Rx         0002  6  02 01 00 42 00 00 
  2129)     39898.4  Rx         0001  8  05 01 14 0B F6 FB 16 0B 
  2130)     39899.2  Rx         0001  8  05 01 F6 8E 14 0A F6 8E 
  2131)     39899.6  Rx         0001  8  05 01 16 0A C2 FC 0C 57 
  2132)     39900.7  Rx         0001  8  05 01 5C 2C C2 FD 0D 57 
  2133)     39901.5  Rx         0001  8  05 01 70 CD 6F FC F6 FC 
  2134)     39901.6  Rx         0001  8  05 01 32 F1 C2 FC 0E 57 
  2135)     39902.0  Rx         0001  8  05 01 5C CC 70 CB C2 FB 
  2136)     39902.2  Rx         0001  8  05 01 0F 57 5C 1B C4 CB 
  2137)     39902.4  Rx         0001  8  05 01 C0 FE DA E0 C0 32 
  2138)     39902.5  Rx         0001  8  05 01 E1 19 F7 F9 65 5B 
  2139)     39902.7  Rx         0001  8  05 01 D4 2F 0A 00 06 FF 
  2140)     39904.4  Rx         0001  2  02 01 
  2141)     39905.0  Rx         0002  6  02 01 00 42 00 00 
  2142)     39906.4  Rx         0001  8  05 01 0C 00 FA E0 F6 35 
  2143)     39906.5  Rx         0001  8  05 01 88 6F 88 8F F1 C4 
  2144)     39906.8  Rx         0001  8  05 01 F1 D5 E0 08 43 8E 
  2145)     39906.9  Rx         0001  8  05 01 F4 56 3D 04 E6 F8 
  2146)     39907.2  Rx         0001  8  05 01 21 00 EA 00 EC 12 
  2147)     39907.5  Rx         0001  8  05 01 47 FC 35 00 3D 12 
  2148)     39907.7  Rx         0001  8  05 01 49 D0 2D 0A 49 D1 
  2149)     39907.9  Rx         0001  8  05 01 EA 30 C8 12 E7 F4 
  2150)     39908.0  Rx         0001  8  05 01 95 00 E1 05 DA E0 
  2151)     39908.4  Rx         0001  8  05 01 D2 30 EA 00 CC 12 
  2152)     39908.5  Rx         0001  8  05 01 E7 F4 95 00 E1 15 
  2153)     39910.4  Rx         0001  2  02 01 
  2154)     39911.0  Rx         0002  6  02 01 00 42 00 00 
  2155)     39912.5  Rx         0001  8  05 01 DA E0 D2 30 0D 7E 
  2156)     39913.0  Rx         0001  8  05 01 47 FC 46 00 3D 1E 
  2157)     39913.1  Rx         0001  8  05 01 49 D1 3D 0C 43 8E 
  2158)     39913.4  Rx         0001  8  05 01 68 5B 3D 09 DA E0 
  2159)     39914.1  Rx         0001  8  05 01 6E 37 0F AF DA E0 
  2160)     39916.3  Rx         0001  8  05 01 C0 32 E1 19 F7 F9 
  2161)     39917.2  Rx         0001  8  05 01 68 5B 0D 0D 49 D0 
  2162)     39917.7  Rx         0001  8  05 01 3D 0B F3 F9 68 5B 
  2163)     39918.1  Rx         0001  8  05 01 49 91 3D 07 DA E0 
  2164)     39918.3  Rx         0001  8  05 01 6E 37 0E AF DA E0 
  2165)     39918.7  Rx         0001  8  05 01 C0 32 F7 8E 68 5B 
  2166)     39920.4  Rx         0001  2  02 01 
  2167)     39921.0  Rx         0002  6  02 01 00 42 00 00 
  2168)     39922.4  Rx         0001  8  05 01 49 D2 9D 5C 0D 5D 
  2169)     39922.6  Rx         0001  8  05 01 47 FC 24 00 3D 0E 
  2170)     39922.7  Rx         0001  8  05 01 49 D0 2D 07 49 D1 
  2171)     39922.9  Rx         0001  8  05 01 3D 54 E6 FB 00 38 
  2172)     39923.0  Rx         0001  8  05 01 74 FB 58 5B 0D 51 
  2173)     39923.4  Rx         0001  8  05 01 E6 FB FF C7 64 FB 
  2174)     39923.6  Rx         0001  8  05 01 58 5B 0D 4C 47 FC 
  2175)     39923.7  Rx         0001  8  05 01 25 00 3D 0E 49 D0 
  2176)     39923.9  Rx         0001  8  05 01 2D 07 49 D1 3D 43 
  2177)     39924.0  Rx         0001  8  05 01 E6 FB 00 07 74 FB 
  2178)     39924.2  Rx         0001  8  05 01 58 5B 0D 40 E6 FB 
  2179)     39926.4  Rx         0001  2  02 01 
  2180)     39927.0  Rx         0002  6  02 01 00 42 00 00 
  2181)     39928.7  Rx         0001  8  05 01 FF F8 64 FB 58 5B 
  2182)     39929.0  Rx         0001  8  05 01 0D 3B 47 FC 34 00 
  2183)     39929.6  Rx         0001  8  05 01 3D 0E 49 D0 2D 07 
  2184)     39930.0  Rx         0001  8  05 01 49 D1 3D 32 E6 FB 
  2185)     39930.1  Rx         0001  8  05 01 80 00 74 FB 58 5B 
  2186)     39930.3  Rx         0001  8  05 01 0D 2F E6 FB 7F FF 
  2187)     39930.7  Rx         0001  8  05 01 64 FB 58 5B 0D 2A 
  2188)     39931.6  Rx         0001  8  05 01 47 FC 33 00 3D 25 
  2189)     39932.4  Rx         0001  8  05 01 49 D2 2D 05 49 D3 
  2190)     39932.6  Rx         0001  8  05 01 2D 0B 49 D4 2D 16 
  2191)     39932.9  Rx         0001  8  05 01 0D 1E E7 F4 80 00 
  2192)     39934.3  Rx         0001  2  02 01 
  2193)     39934.9  Rx         0002  6  02 01 00 42 00 00 
  2194)     39936.2  Rx         0001  8  05 01 E1 15 DA E0 22 34 
  2195)     39936.4  Rx         0001  8  05 01 F7 8E 67 5B 0D 18 
  2196)     39936.6  Rx         0001  8  05 01 E7 F4 80 00 E1 05 
  2197)     39936.7  Rx         0001  8  05 01 DA E0 56 36 E1 24 
  2198)     39936.9  Rx         0001  8  05 01 E1 85 DA E0 56 36 
  2199)     39937.1  Rx         0001  8  05 01 E1 19 F7 F9 67 5B 
  2200)     39937.4  Rx         0001  8  05 01 0D 0B E7 F4 80 00 
  2201)     39937.5  Rx         0001  8  05 01 E1 05 DA E0 22 34 
  2202)     39937.9  Rx         0001  8  05 01 E1 29 F7 F9 67 5B 
  2203)     39938.3  Rx         0001  8  05 01 0D 02 E6 F8 1F 00 
  2204)     39938.7  Rx         0001  8  05 01 48 80 3D 0E 47 FC 
  2205)     39940.6  Rx         0001  2  02 01 
  2206)     39941.2  Rx         0002  6  02 01 00 42 00 00 
  2207)     39943.7  Rx         0001  8  05 01 33 00 2D 0B 47 FC 
  2208)     39945.3  Rx         0001  8  05 01 35 00 2D 08 47 FC 
  2209)     39946.8  Rx         0001  8  05 01 46 00 2D 05 E1 19 
  2210)     39948.6  Rx         0001  8  05 01 F7 F9 13 5B F7 F9 
  2211)     39951.1  Rx         0001  8  05 01 12 5B F0 28 98 8F 
  2212)     39954.5  Rx         0001  8  05 01 98 6F DB 00 3A F5 
  2213)     39956.8  Rx         0001  8  05 01 F5 FF DA E0 30 32 
  2214)     39958.9  Rx         0001  8  05 01 43 FA 1E FF 2D 6E 
  2215)     39959.7  Rx         0001  8  05 01 43 F2 1E FF 2D 7B 
  2216)     39960.3  Rx         0001  8  05 01 48 50 EA 21 10 14 
  2217)     39960.7  Rx         0001  8  05 01 48 10 2D 7B 40 15 
  2218)     39962.6  Rx         0001  2  02 01 
  2219)     39963.3  Rx         0002  6  02 01 00 42 00 00 
  2220)     39964.9  Rx         0001  8  05 01 9D 0C 50 3E 50 E3 
  2221)     39965.5  Rx         0001  8  05 01 50 3E 50 24 50 42 
  2222)     39966.0  Rx         0001  8  05 01 50 24 50 15 50 51 
  2223)     39966.5  Rx         0001  8  05 01 50 15 4A F6 F6 02 
  2224)     39967.0  Rx         0001  8  05 01 7C 16 E1 0D 20 51 
  2225)     39967.5  Rx         0001  8  05 01 2D 2D 81 50 46 F5 
  2226)     39968.1  Rx         0001  8  05 01 18 00 ED 6A 9A F5 
  2227)     39968.8  Rx         0001  8  05 01 17 40 26 F5 10 00 
  2228)     39969.2  Rx         0001  8  05 01 2D 09 26 F5 08 00 
  2229)     39969.7  Rx         0001  8  05 01 2D 0C 7C 84 5C 8E 
  2230)     39970.2  Rx         0001  8  05 01 70 4E 6C E5 81 50 
  2231)     39972.8  Rx         0001  2  02 01 
  2232)     39973.5  Rx         0002  6  02 01 00 42 00 00 
  2233)     39975.2  Rx         0001  8  05 01 4C 45 66 F4 00 FF 
  2234)     39976.5  Rx         0001  8  05 01 70 64 F0 4E E0 0E 
  2235)     39977.1  Rx         0001  8  05 01 0D 15 5C 8E 70 6E 
  2236)     39977.9  Rx         0001  8  05 01 E0 0E E0 04 0D 10 
  2237)     39978.4  Rx         0001  8  05 01 F1 7C F0 64 81 50 
  2238)     39978.9  Rx         0001  8  05 01 4C 65 F1 C7 C0 63 
  2239)     39979.5  Rx         0001  8  05 01 5C 8E 70 3E 7C 8E 
  2240)     39980.3  Rx         0001  8  05 01 4C E5 81 50 6C 45 
  2241)     39982.3  Rx         0001  8  05 01 70 4E C0 7E 6C E5 
  2242)     39984.9  Rx         0001  8  05 01 C0 63 2A F6 F6 01 
  2243)     39985.2  Rx         0001  8  05 01 6D 11 00 24 10 3E 
  2244)     39987.4  Rx         0001  2  02 01 
  2245)     39988.0  Rx         0002  6  02 01 00 42 00 00 
  2246)     39989.9  Rx         0001  8  05 01 8A F3 02 80 FA E0 
  2247)     39990.2  Rx         0001  8  05 01 32 30 4A F6 F6 01 
  2248)     39990.6  Rx         0001  8  05 01 7C 16 4A F2 F6 0F 
  2249)     39991.0  Rx         0001  8  05 01 7C 12 4A F3 F2 0F 
  2250)     39991.6  Rx         0001  8  05 01 7C 13 08 11 0D F3 
  2251)     39991.9  Rx         0001  8  05 01 A1 D0 30 24 30 3E 
  2252)     39992.3  Rx         0001  8  05 01 2D 2B 9D 06 91 60 
  2253)     39992.7  Rx         0001  8  05 01 91 20 91 30 09 D1 
  2254)     39993.1  Rx         0001  8  05 01 18 20 18 30 9A F3 
  2255)     39993.5  Rx         0001  8  05 01 02 70 FA E0 32 30 
  2256)     39993.9  Rx         0001  8  05 01 01 DD 10 22 10 33 
  2257)     39995.5  Rx         0001  2  02 01 
  2258)     39996.2  Rx         0002  6  02 01 00 42 00 00 
  2259)     39997.9  Rx         0001  8  05 01 28 11 0D F7 46 FE 
  2260)     39998.6  Rx         0001  8  05 01 80 00 3D 10 43 F2 
  2261)     39999.3  Rx         0001  8  05 01 1E FF 2D 03 7C 16 
  2262)     39999.6  Rx         0001  8  05 01 FA E0 D0 31 46 F3 
  2263)     39999.9  Rx         0001  8  05 01 80 00 3D 07 2A F6 
  2264)     40000.3  Rx         0001  8  05 01 F6 10 7D F8 0D 03 
  2265)     40000.6  Rx         0001  8  05 01 46 F3 80 00 2D F4 
  2266)     40000.9  Rx         0001  8  05 01 FA E0 DC 31 F0 15 
  2267)     40001.2  Rx         0001  8  05 01 7C 16 F0 3E F0 24 
  2268)     40002.0  Rx         0001  8  05 01 FA E0 48 30 DB 00 
  2269)     40002.5  Rx         0001  8  05 01 DA E0 46 36 28 F2 
  2270)     40004.9  Rx         0001  2  02 01 
  2271)     40005.5  Rx         0002  6  02 01 00 42 00 00 
  2272)     40007.8  Rx         0001  8  05 01 F0 13 F0 84 B9 4F 
  2273)     40009.1  Rx         0001  8  05 01 E4 5F 01 00 E0 00 
  2274)     40010.2  Rx         0001  8  05 01 F1 94 47 F9 80 00 
  2275)     40011.2  Rx         0001  8  05 01 9D 10 C0 9B 5C 2B 
  2276)     40012.4  Rx         0001  8  05 01 06 FB 00 54 A8 BB 
  2277)     40015.4  Rx         0001  8  05 01 F0 CB 7C DC 68 C3 
  2278)     40018.7  Rx         0001  8  05 01 3D 03 E6 F0 21 00 
  2279)     40020.0  Rx         0001  8  05 01 0D 0D 48 C2 3D 02 
  2280)     40020.6  Rx         0001  8  05 01 9A FB 03 B0 E6 F0 
  2281)     40021.6  Rx         0001  8  05 01 29 00 0D 06 48 10 
  2282)     40022.1  Rx         0001  8  05 01 2D 02 48 80 3D 02 
  2283)     40024.0  Rx         0001  2  02 01 
  2284)     40024.6  Rx         0002  6  02 01 00 42 00 00 
  2285)     40026.3  Rx         0001  8  05 01 E6 F0 1E 00 48 00 
  2286)     40026.8  Rx         0001  8  05 01 3D 63 A9 9F C0 99 
  2287)     40027.3  Rx         0001  8  05 01 5C 29 06 F9 00 54 
  2288)     40027.8  Rx         0001  8  05 01 E0 0D A9 99 C0 9B 
  2289)     40028.3  Rx         0001  8  05 01 5C 5B F0 CB 06 FC 
  2290)     40028.8  Rx         0001  8  05 01 06 10 DA E0 32 35 
  2291)     40029.2  Rx         0001  8  05 01 DC 4D A8 6C A4 08 
  2292)     40029.7  Rx         0001  8  05 01 1C FF DA E0 56 38 
  2293)     40030.2  Rx         0001  8  05 01 9A FB 3B 40 E6 F0 
  2294)     40030.6  Rx         0001  8  05 01 2C 00 E4 C9 02 00 
  2295)     40031.2  Rx         0001  8  05 01 0D 36 F4 49 02 00 
  2296)     40033.0  Rx         0001  2  02 01 
  2297)     40033.6  Rx         0002  6  02 01 00 42 00 00 
  2298)     40035.5  Rx         0001  8  05 01 C0 4A 5C 5A E0 07 
  2299)     40035.9  Rx         0001  8  05 01 06 FA 1C 10 16 F7 
  2300)     40036.4  Rx         0001  8  05 01 20 00 F0 BA 66 FA 
  2301)     40036.9  Rx         0001  8  05 01 FF 3F 7C EB 5C 27 
  2302)     40037.4  Rx         0001  8  05 01 70 7B DC 47 A8 BA 
  2303)     40037.9  Rx         0001  8  05 01 9A FB 1C 30 E0 8B 
  2304)     40038.3  Rx         0001  8  05 01 DC 47 B8 BA A9 98 
  2305)     40038.6  Rx         0001  8  05 01 C0 9B E0 EC 1B BC 
  2306)     40039.0  Rx         0001  8  05 01 F0 31 02 F3 0E FE 
  2307)     40039.3  Rx         0001  8  05 01 DA E0 3C 17 DC 47 
  2308)     40039.6  Rx         0001  8  05 01 A8 BA 9A FB 05 30 
  2309)     40042.5  Rx         0001  2  02 01 
  2310)     40043.2  Rx         0002  6  02 01 00 42 00 00 
  2311)     40044.7  Rx         0001  8  05 01 E6 F0 28 00 E6 FB 
  2312)     40046.5  Rx         0001  8  05 01 11 00 0D 05 A9 98 
  2313)     40047.1  Rx         0001  8  05 01 09 91 B9 98 E6 FB 
  2314)     40047.7  Rx         0001  8  05 01 19 00 DC 47 B8 BA 
  2315)     40048.9  Rx         0001  8  05 01 F4 59 02 00 A9 4F 
  2316)     40049.2  Rx         0001  8  05 01 DA E0 FE 2E E4 49 
  2317)     40049.6  Rx         0001  8  05 01 02 00 F0 28 F4 9F 
  2318)     40050.2  Rx         0001  8  05 01 01 00 49 9A FD 09 
  2319)     40050.6  Rx         0001  8  05 01 F4 99 02 00 41 9C 
  2320)     40051.0  Rx         0001  8  05 01 3D C1 C0 CB DA E0 
  2321)     40051.3  Rx         0001  8  05 01 12 39 8A FB BC 30 
  2322)     40052.9  Rx         0001  2  02 01 
  2323)     40053.6  Rx         0002  6  02 01 00 42 00 00 
  2324)     40055.1  Rx         0001  8  05 01 A9 98 3D 02 E6 F0 
  2325)     40055.6  Rx         0001  8  05 01 2D 00 F0 20 08 F2 
  2326)     40056.0  Rx         0001  8  05 01 FA E0 06 36 88 8F 
  2327)     40056.5  Rx         0001  8  05 01 C0 4E 5C 5E E0 05 
  2328)     40057.1  Rx         0001  8  05 01 F0 2E E0 08 06 F2 
  2329)     40057.6  Rx         0001  8  05 01 1A 10 16 F8 20 00 
  2330)     40058.2  Rx         0001  8  05 01 F0 B2 7C EB 5C 28 
  2331)     40059.4  Rx         0001  8  05 01 70 8B 66 F2 FF 3F 
  2332)     40060.2  Rx         0001  8  05 01 F4 93 09 00 3D 0C 
  2333)     40061.0  Rx         0001  8  05 01 E6 FB 00 40 DC 48 
  2334)     40061.6  Rx         0001  8  05 01 B8 B2 D4 B3 0C 00 
  2335)     40063.9  Rx         0001  2  02 01 
  2336)     40064.5  Rx         0002  6  02 01 00 42 00 00 
  2337)     40066.0  Rx         0001  8  05 01 D4 B3 0A 00 5C 2B 
  2338)     40066.3  Rx         0001  8  05 01 66 FB FC 1F 0D 16 
  2339)     40066.6  Rx         0001  8  05 01 E6 FB 00 60 DC 48 
  2340)     40066.9  Rx         0001  8  05 01 B8 B2 F0 BE F0 C5 
  2341)     40067.2  Rx         0001  8  05 01 06 FB 18 10 DA E0 
  2342)     40067.8  Rx         0001  8  05 01 0E 35 D4 D3 0C 00 
  2343)     40068.7  Rx         0001  8  05 01 D4 D3 0A 00 DC 4C 
  2344)     40070.0  Rx         0001  8  05 01 B8 DB D4 B3 0C 00 
  2345)     40072.7  Rx         0001  8  05 01 D4 C3 0A 00 66 FB 
  2346)     40075.1  Rx         0001  8  05 01 FF 1F DC 58 78 BA 
  2347)     40076.4  Rx         0001  8  05 01 B8 B2 F4 93 01 00 
  2348)     40078.3  Rx         0001  2  02 01 
  2349)     40078.9  Rx         0002  6  02 01 00 42 00 00 
  2350)     40080.4  Rx         0001  8  05 01 C0 9B 5C 8B A9 93 
  2351)     40080.7  Rx         0001  8  05 01 DA E0 4C 38 06 FC 
  2352)     40081.1  Rx         0001  8  05 01 10 10 DA E0 38 34 
  2353)     40081.8  Rx         0001  8  05 01 F4 93 03 00 C0 9B 
  2354)     40082.1  Rx         0001  8  05 01 5C 8B F4 93 02 00 
  2355)     40082.4  Rx         0001  8  05 01 DA E0 4C 38 06 FC 
  2356)     40082.8  Rx         0001  8  05 01 12 10 DA E0 38 34 
  2357)     40083.1  Rx         0001  8  05 01 F4 93 05 00 C0 9B 
  2358)     40083.5  Rx         0001  8  05 01 5C 8B F4 93 04 00 
  2359)     40083.9  Rx         0001  8  05 01 DA E0 4C 38 06 FC 
  2360)     40084.3  Rx         0001  8  05 01 14 10 DA E0 38 34 
  2361)     40086.1  Rx         0001  2  02 01 
  2362)     40086.7  Rx         0002  6  02 01 00 42 00 00 
  2363)     40088.4  Rx         0001  8  05 01 F4 93 07 00 C0 9B 
  2364)     40089.0  Rx         0001  8  05 01 5C 8B F4 93 06 00 
  2365)     40089.5  Rx         0001  8  05 01 DA E0 4C 38 06 FC 
  2366)     40090.0  Rx         0001  8  05 01 16 10 DA E0 38 34 
  2367)     40090.4  Rx         0001  8  05 01 06 FE 02 10 16 F5 
  2368)     40091.3  Rx         0001  8  05 01 20 00 F0 2E 66 F2 
  2369)     40091.7  Rx         0001  8  05 01 FF 3F F0 BE 7C EB 
  2370)     40092.2  Rx         0001  8  05 01 5C 25 70 5B DC 45 
  2371)     40092.5  Rx         0001  8  05 01 A8 B2 66 FB FF F0 
  2372)     40092.8  Rx         0001  8  05 01 DC 45 B8 B2 F4 93 
  2373)     40093.1  Rx         0001  8  05 01 08 00 C0 9B 5C 8B 
  2374)     40094.8  Rx         0001  2  02 01 
  2375)     40095.4  Rx         0002  6  02 01 00 42 00 00 
  2376)     40097.2  Rx         0001  8  05 01 66 FB 00 0F DC 55 
  2377)     40098.7  Rx         0001  8  05 01 78 BA B8 B2 98 8F 
  2378)     40101.3  Rx         0001  8  05 01 DB 00 E6 08 00 F2 
  2379)     40103.7  Rx         0001  8  05 01 A5 5A A5 A5 F2 FB 
  2380)     40104.5  Rx         0001  8  05 01 6E F0 66 FB FF 00 
  2381)     40105.3  Rx         0001  8  05 01 46 FB FC 00 2D 03 
  2382)     40105.6  Rx         0001  8  05 01 D1 80 E6 37 FC 3A 
  2383)     40106.8  Rx         0001  8  05 01 E6 FB 80 00 F6 FB 
  2384)     40107.4  Rx         0001  8  05 01 E0 E8 CC 00 CC 00 
  2385)     40107.9  Rx         0001  8  05 01 CC 00 E6 FB 13 40 
  2386)     40108.4  Rx         0001  8  05 01 F6 FB 00 EE E6 FB 
  2387)     40110.5  Rx         0001  2  02 01 
  2388)     40111.1  Rx         0002  6  02 01 00 42 00 00 
  2389)     40112.9  Rx         0001  8  05 01 3F 00 F6 FB 02 EE 
  2390)     40113.4  Rx         0001  8  05 01 E6 FB 2C 29 F6 FB 
  2391)     40113.9  Rx         0001  8  05 01 10 EE E6 FC 31 00 
  2392)     40114.4  Rx         0001  8  05 01 F6 FC 12 EE F6 FB 
  2393)     40114.8  Rx         0001  8  05 01 10 EE F6 FC 12 EE 
  2394)     40115.4  Rx         0001  8  05 01 E6 89 00 00 D1 30 
  2395)     40116.7  Rx         0001  8  05 01 E6 86 00 00 E6 09 
  2396)     40116.9  Rx         0001  8  05 01 00 FC E6 0A 0C F8 
  2397)     40117.5  Rx         0001  8  05 01 E6 0B 00 FC E6 00 
  2398)     40117.8  Rx         0001  8  05 01 80 03 E6 01 81 03 
  2399)     40118.1  Rx         0001  8  05 01 E6 02 82 03 F2 FB 
  2400)     40120.6  Rx         0001  2  02 01 
  2401)     40121.2  Rx         0002  6  02 01 00 42 00 00 
  2402)     40122.8  Rx         0001  8  05 01 38 5B F2 FC 3A 5B 
  2403)     40123.3  Rx         0001  8  05 01 DC 0C A8 DB 08 B2 
  2404)     40123.8  Rx         0001  8  05 01 18 C0 DC 0C A8 BB 
  2405)     40124.2  Rx         0001  8  05 01 66 FB 1F 00 42 FD 
  2406)     40124.6  Rx         0001  8  05 01 44 5B 32 FB 46 5B 
  2407)     40124.9  Rx         0001  8  05 01 3D 22 E6 48 FF 01 
  2408)     40125.3  Rx         0001  8  05 01 F2 FB A0 F0 8A FB 
  2409)     40125.6  Rx         0001  8  05 01 10 F0 F2 FB A0 F0 
  2410)     40125.9  Rx         0001  8  05 01 9A FB 0F 40 D1 B0 
  2411)     40126.5  Rx         0001  8  05 01 E6 6E 01 00 F6 6E 
  2412)     40128.6  Rx         0001  8  05 01 1C FF 76 50 00 B8 
  2413)     40130.6  Rx         0001  2  02 01 
  2414)     40131.2  Rx         0002  6  02 01 00 42 00 00 
  2415)     40133.6  Rx         0001  8  05 01 E6 5C 00 A0 B7 48 
  2416)     40135.9  Rx         0001  8  05 01 B7 B7 0D 0C D1 80 
  2417)     40137.4  Rx         0001  8  05 01 66 50 FF 07 D1 B0 
  2418)     40138.0  Rx         0001  8  05 01 E6 54 06 00 F6 54 
  2419)     40139.7  Rx         0001  8  05 01 1C FF E6 62 01 00 
  2420)     40140.2  Rx         0001  8  05 01 F6 62 1C FF B5 4A 
  2421)     40140.5  Rx         0001  8  05 01 B5 B5 E6 FF FE 5F 
  2422)     40140.8  Rx         0001  8  05 01 E1 09 D7 40 81 03 
  2423)     40141.2  Rx         0001  8  05 01 43 F9 40 08 2D 03 
  2424)     40141.5  Rx         0001  8  05 01 E0 02 DA E0 80 1C 
  2425)     40141.8  Rx         0001  8  05 01 BF 88 E0 02 E0 03 
  2426)     40143.5  Rx         0001  2  02 01 
  2427)     40144.1  Rx         0002  6  02 01 00 42 00 00 
  2428)     40145.4  Rx         0001  8  05 01 DA E0 5E 0B FA E0 
  2429)     40145.7  Rx         0001  8  05 01 3C 39 88 8F C0 45 
  2430)     40146.0  Rx         0001  8  05 01 5C 55 E0 08 F0 B5 
  2431)     40146.3  Rx         0001  8  05 01 DA E0 42 38 DC 4C 
  2432)     40146.7  Rx         0001  8  05 01 A8 DB E1 09 4A FD 
  2433)     40147.4  Rx         0001  8  05 01 F4 D8 E4 93 09 00 
  2434)     40149.0  Rx         0001  8  05 01 3D 0A DC 4C A8 BB 
  2435)     40149.6  Rx         0001  8  05 01 7C 2B 66 FB FF 07 
  2436)     40149.9  Rx         0001  8  05 01 C4 B3 0A 00 C4 83 
  2437)     40150.2  Rx         0001  8  05 01 0C 00 0D 1F E0 A2 
  2438)     40150.5  Rx         0001  8  05 01 00 23 F0 D5 F0 E8 
  2439)     40152.7  Rx         0001  2  02 01 
  2440)     40153.4  Rx         0002  6  02 01 00 42 00 00 
  2441)     40154.8  Rx         0001  8  05 01 06 FD 18 10 16 FE 
  2442)     40155.1  Rx         0001  8  05 01 20 00 F0 4D 66 FD 
  2443)     40155.6  Rx         0001  8  05 01 FF 3F 7C E4 5C 2E 
  2444)     40157.1  Rx         0001  8  05 01 70 E4 DC 4E A8 DD 
  2445)     40158.1  Rx         0001  8  05 01 C4 D3 0A 00 E0 0E 
  2446)     40158.9  Rx         0001  8  05 01 C4 E3 0C 00 DC 4C 
  2447)     40159.5  Rx         0001  8  05 01 A8 BB 66 FB FF 1F 
  2448)     40160.2  Rx         0001  8  05 01 78 EE 78 BA C4 E3 
  2449)     40161.4  Rx         0001  8  05 01 0A 00 C4 B3 0C 00 
  2450)     40162.6  Rx         0001  8  05 01 F0 B5 F0 C8 DA E0 
  2451)     40163.2  Rx         0001  8  05 01 C2 38 DC 4C A8 4B 
  2452)     40165.1  Rx         0001  2  02 01 
  2453)     40165.7  Rx         0002  6  02 01 00 42 00 00 
  2454)     40168.7  Rx         0001  8  05 01 7C 84 67 F8 0F 00 
  2455)     40170.0  Rx         0001  8  05 01 E4 83 08 00 F0 B5 
  2456)     40170.3  Rx         0001  8  05 01 F0 C8 06 FB 10 10 
  2457)     40170.6  Rx         0001  8  05 01 DA E0 9E 37 B9 53 
  2458)     40170.9  Rx         0001  8  05 01 7C 84 E4 83 01 00 
  2459)     40171.2  Rx         0001  8  05 01 F0 B5 F0 C8 06 FB 
  2460)     40171.5  Rx         0001  8  05 01 12 10 DA E0 9E 37 
  2461)     40172.0  Rx         0001  8  05 01 E4 53 02 00 7C 84 
  2462)     40172.4  Rx         0001  8  05 01 E4 83 03 00 F0 B5 
  2463)     40172.7  Rx         0001  8  05 01 F0 C8 06 FB 14 10 
  2464)     40173.6  Rx         0001  8  05 01 DA E0 9E 37 06 F5 
  2465)     40176.0  Rx         0001  2  02 01 
  2466)     40176.6  Rx         0002  6  02 01 00 42 00 00 
  2467)     40178.0  Rx         0001  8  05 01 16 10 16 F8 20 00 
  2468)     40178.3  Rx         0001  8  05 01 F0 B5 66 F5 FF 3F 
  2469)     40178.6  Rx         0001  8  05 01 E4 53 04 00 7C 84 
  2470)     40178.8  Rx         0001  8  05 01 E4 83 05 00 7C EB 
  2471)     40179.1  Rx         0001  8  05 01 5C 28 70 8B DC 48 
  2472)     40179.4  Rx         0001  8  05 01 A8 45 F1 B8 E4 B3 
  2473)     40179.7  Rx         0001  8  05 01 06 00 7C 84 E4 83 
  2474)     40180.1  Rx         0001  8  05 01 07 00 98 8F DB 00 
  2475)     40180.4  Rx         0001  8  05 01 88 6F 88 8F F0 82 
  2476)     40180.7  Rx         0001  8  05 01 88 9F 88 AF F4 98 
  2477)     40181.0  Rx         0001  8  05 01 02 00 C0 9C 5C 8C 
  2478)     40183.5  Rx         0001  2  02 01 
  2479)     40184.2  Rx         0002  6  02 01 00 42 00 00 
  2480)     40185.7  Rx         0001  8  05 01 F4 98 03 00 C0 9B 
  2481)     40186.1  Rx         0001  8  05 01 70 CB F4 98 04 00 
  2482)     40186.8  Rx         0001  8  05 01 DA E0 80 36 F4 98 
  2483)     40187.5  Rx         0001  8  05 01 05 00 C0 9B 70 5B 
  2484)     40187.9  Rx         0001  8  05 01 F0 95 F0 AC F1 66 
  2485)     40188.3  Rx         0001  8  05 01 3D 33 F4 98 06 00 
  2486)     40188.7  Rx         0001  8  05 01 C0 9B F0 E5 F0 4C 
  2487)     40189.1  Rx         0001  8  05 01 00 EB 18 40 28 E1 
  2488)     40189.5  Rx         0001  8  05 01 38 40 F0 B5 F0 DC 
  2489)     40190.1  Rx         0001  8  05 01 26 FD C1 00 46 FB 
  2490)     40190.6  Rx         0001  8  05 01 80 00 38 D0 9D 07 
  2491)     40193.1  Rx         0001  2  02 01 
  2492)     40193.7  Rx         0002  6  02 01 00 42 00 00 
  2493)     40196.1  Rx         0001  8  05 01 F0 D4 26 FD C1 00 
  2494)     40197.5  Rx         0001  8  05 01 46 FE 80 00 38 D0 
  2495)     40199.8  Rx         0001  8  05 01 8D 1A F0 B5 F0 DC 
  2496)     40203.9  Rx         0001  8  05 01 DA E0 E6 35 9D 05 
  2497)     40205.8  Rx         0001  8  05 01 F0 BE F0 D4 DA E0 
  2498)     40207.1  Rx         0001  8  05 01 E6 35 8D 10 26 F5 
  2499)     40208.3  Rx         0001  8  05 01 80 7F 36 FC C0 00 
  2500)     40209.7  Rx         0001  8  05 01 46 F5 80 00 38 C0 
  2501)     40210.5  Rx         0001  8  05 01 9D 09 26 FE 80 7F 
  2502)     40211.2  Rx         0001  8  05 01 36 F4 C0 00 46 FE 
  2503)     40212.4  Rx         0001  8  05 01 80 00 38 40 9D 01 
  2504)     40214.5  Rx         0001  2  02 01 
  2505)     40215.2  Rx         0002  6  02 01 00 42 00 00 
  2506)     40216.4  Rx         0001  8  05 01 E1 16 49 61 3D 23 
  2507)     40216.5  Rx         0001  8  05 01 E1 84 E1 45 DA E0 
  2508)     40216.7  Rx         0001  8  05 01 DE 2F E1 0D 0D 11 
  2509)     40216.9  Rx         0001  8  05 01 C5 FD 0E FE E0 6B 
  2510)     40217.1  Rx         0001  8  05 01 5B BB DC 0A A9 99 
  2511)     40217.3  Rx         0001  8  05 01 08 91 18 A0 C2 FB 
  2512)     40217.5  Rx         0001  8  05 01 0C FE E4 9B E0 5A 
  2513)     40217.8  Rx         0001  8  05 01 48 B5 3D 02 DA E0 
  2514)     40217.9  Rx         0001  8  05 01 22 39 09 D1 F4 98 
  2515)     40218.2  Rx         0001  8  05 01 06 00 41 D9 8D EB 
  2516)     40218.7  Rx         0001  8  05 01 DA E0 28 37 2D 05 
  2517)     40220.8  Rx         0001  2  02 01 
  2518)     40221.4  Rx         0002  6  02 01 00 42 00 00 
  2519)     40222.9  Rx         0001  8  05 01 09 92 F7 F9 E6 5A 
  2520)     40224.5  Rx         0001  8  05 01 DA E0 22 39 98 AF 
  2521)     40226.7  Rx         0001  8  05 01 98 9F 98 8F 98 6F 
  2522)     40228.4  Rx         0001  8  05 01 DB 00 DA E0 30 32 
  2523)     40228.7  Rx         0001  8  05 01 7A F6 F6 10 48 50 
  2524)     40229.2  Rx         0001  8  05 01 2D 53 43 FA 1E FF 
  2525)     40229.7  Rx         0001  8  05 01 2D 46 48 10 2D 61 
  2526)     40230.3  Rx         0001  8  05 01 43 F2 1E FF 2D 54 
  2527)     40233.5  Rx         0001  8  05 01 20 15 06 F1 7F 00 
  2528)     40234.8  Rx         0001  8  05 01 48 40 3D 05 46 FE 
  2529)     40235.2  Rx         0001  8  05 01 80 00 3D 02 FA E0 
  2530)     40237.0  Rx         0001  2  02 01 
  2531)     40237.6  Rx         0002  6  02 01 00 42 00 00 
  2532)     40239.0  Rx         0001  8  05 01 3E 30 5C 8E F0 54 
  2533)     40240.1  Rx         0001  8  05 01 7C 85 70 E5 5C 74 
  2534)     40241.0  Rx         0001  8  05 01 FE F4 F0 52 5C 72 
  2535)     40241.9  Rx         0001  8  05 01 5C 73 7C 95 70 35 
  2536)     40243.1  Rx         0001  8  05 01 F6 F3 0C FE F6 F2 
  2537)     40243.6  Rx         0001  8  05 01 0E FE 7B EE F2 F2 
  2538)     40244.0  Rx         0001  8  05 01 0C FE F2 F3 0E FE 
  2539)     40244.4  Rx         0001  8  05 01 E6 07 00 00 7B EE 
  2540)     40244.8  Rx         0001  8  05 01 F2 F2 0E FE F6 F4 
  2541)     40245.7  Rx         0001  8  05 01 0C FE E6 07 00 00 
  2542)     40246.2  Rx         0001  8  05 01 7B EE F2 F5 0E FE 
  2543)     40248.4  Rx         0001  2  02 01 
  2544)     40249.0  Rx         0002  6  02 01 00 42 00 00 
  2545)     40250.7  Rx         0001  8  05 01 1B 35 F2 F4 0C FE 
  2546)     40251.1  Rx         0001  8  05 01 F2 F5 0E FE E0 0E 
  2547)     40251.6  Rx         0001  8  05 01 00 55 10 44 10 EE 
  2548)     40251.9  Rx         0001  8  05 01 20 24 30 3E F1 D4 
  2549)     40252.2  Rx         0001  8  05 01 7C 82 F1 56 7C 83 
  2550)     40252.5  Rx         0001  8  05 01 8A F3 04 70 28 11 
  2551)     40252.8  Rx         0001  8  05 01 01 DD 10 22 10 33 
  2552)     40253.1  Rx         0001  8  05 01 FA E0 32 30 46 FE 
  2553)     40253.5  Rx         0001  8  05 01 80 00 3D 13 43 F2 
  2554)     40253.9  Rx         0001  8  05 01 1E FF 2D 10 48 10 
  2555)     40254.4  Rx         0001  8  05 01 2D 15 FA E0 E4 31 
  2556)     40257.0  Rx         0001  2  02 01 
  2557)     40257.6  Rx         0002  6  02 01 00 42 00 00 
  2558)     40260.1  Rx         0001  8  05 01 43 F2 1E FF 2D 0B 
  2559)     40261.6  Rx         0001  8  05 01 48 10 2D 02 FA E0 
  2560)     40263.0  Rx         0001  8  05 01 CE 31 FA E0 DC 31 
  2561)     40265.0  Rx         0001  8  05 01 46 F3 80 00 2D 05 
  2562)     40267.3  Rx         0001  8  05 01 FA E0 DC 31 46 F3 
  2563)     40270.1  Rx         0001  8  05 01 80 00 3D FB FA E0 
  2564)     40271.1  Rx         0001  8  05 01 D0 31 E0 02 F0 32 
  2565)     40272.2  Rx         0001  8  05 01 DB 00 DA E0 0A 38 
  2566)     40272.9  Rx         0001  8  05 01 28 F2 E0 08 47 F4 
  2567)     40273.0  Rx         0001  8  05 01 3A 00 8D 03 47 F4 
  2568)     40273.2  Rx         0001  8  05 01 3B 00 FD 03 E6 F8 
  2569)     40275.7  Rx         0001  2  02 01 
  2570)     40276.3  Rx         0002  6  02 01 00 42 00 00 
  2571)     40277.8  Rx         0001  8  05 01 22 00 0D 5D C0 49 
  2572)     40278.3  Rx         0001  8  05 01 5C 29 06 F9 00 56 
  2573)     40278.8  Rx         0001  8  05 01 A9 99 3D 03 E6 F8 
  2574)     40279.3  Rx         0001  8  05 01 21 00 0D 54 E1 0D 
  2575)     40279.9  Rx         0001  8  05 01 47 F4 3B 00 3D 01 
  2576)     40281.0  Rx         0001  8  05 01 E1 1D 09 D3 C0 DB 
  2577)     40281.2  Rx         0001  8  05 01 DA E0 86 37 E0 1D 
  2578)     40281.9  Rx         0001  8  05 01 DC 4C B8 DB 47 F4 
  2579)     40282.2  Rx         0001  8  05 01 3B 00 3D 08 E7 F4 
  2580)     40282.5  Rx         0001  8  05 01 72 00 E1 05 DA E0 
  2581)     40282.8  Rx         0001  8  05 01 56 36 E7 F4 34 00 
  2582)     40285.1  Rx         0001  2  02 01 
  2583)     40285.7  Rx         0002  6  02 01 00 42 00 00 
  2584)     40287.1  Rx         0001  8  05 01 0D 07 E7 F4 32 00 
  2585)     40287.7  Rx         0001  8  05 01 E1 05 DA E0 56 36 
  2586)     40289.2  Rx         0001  8  05 01 E7 F4 33 00 E1 05 
  2587)     40289.6  Rx         0001  8  05 01 DA E0 56 36 E6 FA 
  2588)     40290.1  Rx         0001  8  05 01 00 54 E0 07 A8 BA 
  2589)     40290.6  Rx         0001  8  05 01 7C 8B 68 B7 C0 DC 
  2590)     40291.6  Rx         0001  8  05 01 40 BC 3D 03 F1 4E 
  2591)     40292.1  Rx         0001  8  05 01 DA E0 0C 1E 08 A4 
  2592)     40292.9  Rx         0001  8  05 01 86 F7 7F 00 8D F3 
  2593)     40293.4  Rx         0001  8  05 01 A4 09 1C FF F3 F9 
  2594)     40293.7  Rx         0001  8  05 01 5C 5B B9 9F F3 F9 
  2595)     40296.9  Rx         0001  2  02 01 
  2596)     40297.6  Rx         0002  6  02 01 00 42 00 00 
  2597)     40299.6  Rx         0001  8  05 01 5D 5B E4 9F 01 00 
  2598)     40299.9  Rx         0001  8  05 01 E1 19 F0 BF E0 0C 
  2599)     40300.2  Rx         0001  8  05 01 A9 8B C0 8D 5C 2D 
  2600)     40300.5  Rx         0001  8  05 01 F4 8D 00 56 2D 01 
  2601)     40300.9  Rx         0001  8  05 01 E1 09 08 B1 80 1C 
  2602)     40301.3  Rx         0001  8  05 01 8D F6 49 90 2D 0B 
  2603)     40301.7  Rx         0001  8  05 01 DA E0 6E 37 E6 0F 
  2604)     40302.2  Rx         0001  8  05 01 02 00 CC 00 CC 00 
  2605)     40302.6  Rx         0001  8  05 01 CC 00 DA E0 C0 32 
  2606)     40303.1  Rx         0001  8  05 01 F7 8E 64 5B F0 28 
  2607)     40303.5  Rx         0001  8  05 01 08 F2 FA E0 CE 37 
  2608)     40305.3  Rx         0001  2  02 01 
  2609)     40305.9  Rx         0002  6  02 01 00 42 00 00 
  2610)     40307.4  Rx         0001  8  05 01 88 6F 88 8F 88 9F 
  2611)     40307.9  Rx         0001  8  05 01 88 AF E0 08 E1 09 
  2612)     40308.3  Rx         0001  8  05 01 47 F4 80 00 8D 03 
  2613)     40308.7  Rx         0001  8  05 01 E6 F8 29 00 0D 0F 
  2614)     40309.6  Rx         0001  8  05 01 C0 4B 5C 2B 06 FB 
  2615)     40310.5  Rx         0001  8  05 01 00 54 A8 BB 7C DB 
  2616)     40311.0  Rx         0001  8  05 01 68 B3 3D 03 E6 F8 
  2617)     40311.6  Rx         0001  8  05 01 21 00 0D 04 48 30 
  2618)     40312.8  Rx         0001  8  05 01 3D 02 E6 F8 1E 00 
  2619)     40313.3  Rx         0001  8  05 01 48 80 3D 1C C0 4B 
  2620)     40313.9  Rx         0001  8  05 01 5C 2B 06 FB 00 54 
  2621)     40315.5  Rx         0001  2  02 01 
  2622)     40316.2  Rx         0002  6  02 01 00 42 00 00 
  2623)     40318.2  Rx         0001  8  05 01 E0 0D A9 9B C0 9C 
  2624)     40319.5  Rx         0001  8  05 01 5C 5C 06 FC 1C 10 
  2625)     40320.7  Rx         0001  8  05 01 DA E0 32 35 DC 4D 
  2626)     40322.6  Rx         0001  8  05 01 A8 CC 9A FC 02 80 
  2627)     40324.2  Rx         0001  8  05 01 E0 28 0D 0A A8 BB 
  2628)     40325.4  Rx         0001  8  05 01 F0 CB 7C DC 68 C3 
  2629)     40326.9  Rx         0001  8  05 01 48 C1 3D 02 8A FB 
  2630)     40327.9  Rx         0001  8  05 01 02 B0 E6 F8 29 00 
  2631)     40328.4  Rx         0001  8  05 01 48 80 3D 2C C0 9A 
  2632)     40328.9  Rx         0001  8  05 01 5C 5A F0 6A E0 09 
  2633)     40329.0  Rx         0001  8  05 01 06 F6 1C 10 16 F9 
  2634)     40330.4  Rx         0001  2  02 01 
  2635)     40331.0  Rx         0002  6  02 01 00 42 00 00 
  2636)     40332.7  Rx         0001  8  05 01 20 00 F0 B6 7C EB 
  2637)     40333.0  Rx         0001  8  05 01 5C 29 70 9B 66 F6 
  2638)     40333.5  Rx         0001  8  05 01 FF 3F E6 FB 00 07 
  2639)     40333.9  Rx         0001  8  05 01 DC 49 B8 B6 F1 49 
  2640)     40334.3  Rx         0001  8  05 01 DA E0 34 15 E0 0B 
  2641)     40334.7  Rx         0001  8  05 01 06 FA 1E 10 16 FB 
  2642)     40335.1  Rx         0001  8  05 01 20 00 F0 CA 7C EC 
  2643)     40336.3  Rx         0001  8  05 01 5C 2B 70 BC 66 FA 
  2644)     40337.1  Rx         0001  8  05 01 FF 3F E6 FC 28 08 
  2645)     40338.1  Rx         0001  8  05 01 DC 4B B8 CA E6 FC 
  2646)     40338.7  Rx         0001  8  05 01 42 00 DC 49 B8 C6 
  2647)     40340.8  Rx         0001  2  02 01 
  2648)     40341.4  Rx         0002  6  02 01 00 42 00 00 
  2649)     40342.9  Rx         0001  8  05 01 E6 FC 00 07 DC 4B 
  2650)     40343.5  Rx         0001  8  05 01 B8 CA F0 28 98 AF 
  2651)     40344.1  Rx         0001  8  05 01 98 9F 98 8F 98 6F 
  2652)     40344.6  Rx         0001  8  05 01 DB 00 88 8F 88 9F 
  2653)     40345.0  Rx         0001  8  05 01 26 FF 80 00 E0 0B 
  2654)     40345.6  Rx         0001  8  05 01 D7 40 FF 03 42 FB 
  2655)     40346.1  Rx         0001  8  05 01 0A 3F 2D 09 E6 FB 
  2656)     40346.6  Rx         0001  8  05 01 FF 1F D7 40 FF 03 
  2657)     40347.3  Rx         0001  8  05 01 62 FB 16 3F 46 FB 
  2658)     40347.6  Rx         0001  8  05 01 FF 1F 2D 53 DA E0 
  2659)     40347.9  Rx         0001  8  05 01 C6 34 DA E0 56 35 
  2660)     40350.4  Rx         0001  2  02 01 
  2661)     40351.0  Rx         0002  6  02 01 00 42 00 00 
  2662)     40355.3  Rx         0001  8  05 01 E6 F2 80 00 E6 F3 
  2663)     40355.8  Rx         0001  8  05 01 C0 00 DA E0 CA 28 
  2664)     40356.3  Rx         0001  8  05 01 E6 F3 C0 00 E0 02 
  2665)     40358.0  Rx         0001  8  05 01 DA E0 CA 28 DA E0 
  2666)     40358.5  Rx         0001  8  05 01 FC 34 E6 FB 06 E3 
  2667)     40358.8  Rx         0001  8  05 01 B8 BF E6 FB 7D 88 
  2668)     40359.1  Rx         0001  8  05 01 C4 BF 02 00 E6 FB 
  2669)     40359.7  Rx         0001  8  05 01 5A B2 C4 BF 04 00 
  2670)     40360.9  Rx         0001  8  05 01 E6 FB B8 AF C4 BF 
  2671)     40361.3  Rx         0001  8  05 01 06 00 E6 FB 00 80 
  2672)     40361.7  Rx         0001  8  05 01 C4 BF 08 00 E0 0B 
  2673)     40363.8  Rx         0001  2  02 01 
  2674)     40364.5  Rx         0002  6  02 01 00 42 00 00 
  2675)     40366.5  Rx         0001  8  05 01 DA E0 FE 36 E6 FB 
  2676)     40367.6  Rx         0001  8  05 01 E0 FF C4 BF 10 00 
  2677)     40368.1  Rx         0001  8  05 01 F0 2F DA E0 84 33 
  2678)     40368.4  Rx         0001  8  05 01 F0 82 F0 93 E6 F3 
  2679)     40369.3  Rx         0001  8  05 01 C0 00 E0 02 F0 48 
  2680)     40369.6  Rx         0001  8  05 01 F0 59 DA E0 60 26 
  2681)     40369.8  Rx         0001  8  05 01 DA E0 FC 34 E6 FB 
  2682)     40370.1  Rx         0001  8  05 01 55 AA B8 BF C4 BF 
  2683)     40370.4  Rx         0001  8  05 01 02 00 E0 0B C4 BF 
  2684)     40370.9  Rx         0001  8  05 01 04 00 C4 BF 06 00 
  2685)     40371.2  Rx         0001  8  05 01 C4 BF 08 00 DA E0 
  2686)     40373.3  Rx         0001  2  02 01 
  2687)     40373.9  Rx         0002  6  02 01 00 42 00 00 
  2688)     40375.4  Rx         0001  8  05 01 FE 36 E6 F2 80 00 
  2689)     40376.7  Rx         0001  8  05 01 E6 F3 C0 00 F0 48 
  2690)     40377.0  Rx         0001  8  05 01 F0 59 DA E0 60 26 
  2691)     40377.3  Rx         0001  8  05 01 D7 40 00 03 F6 8E 
  2692)     40377.6  Rx         0001  8  05 01 5E 00 06 FF 80 00 
  2693)     40377.9  Rx         0001  8  05 01 98 9F 98 8F DB 00 
  2694)     40378.2  Rx         0001  8  05 01 88 6F 88 7F 88 8F 
  2695)     40378.4  Rx         0001  8  05 01 88 9F 88 AF F0 82 
  2696)     40379.5  Rx         0001  8  05 01 E6 F6 40 48 E6 F7 
  2697)     40381.4  Rx         0001  8  05 01 E0 00 DC 17 A9 86 
  2698)     40383.5  Rx         0001  8  05 01 F4 96 01 00 69 83 
  2699)     40386.5  Rx         0001  2  02 01 
  2700)     40387.1  Rx         0002  6  02 01 00 42 00 00 
  2701)     40389.6  Rx         0001  8  05 01 D0 8C 5C 1C D0 9B 
  2702)     40391.8  Rx         0001  8  05 01 28 B1 D7 00 E0 00 
  2703)     40394.2  Rx         0001  8  05 01 D4 CC 00 44 9C 0C 
  2704)     40395.8  Rx         0001  8  05 01 5C 2B DC 37 D4 36 
  2705)     40397.0  Rx         0001  8  05 01 0C 00 D4 26 0A 00 
  2706)     40398.0  Rx         0001  8  05 01 D4 56 04 00 D4 46 
  2707)     40398.4  Rx         0001  8  05 01 02 00 D7 50 81 03 
  2708)     40399.9  Rx         0001  8  05 01 D4 AB 02 0D D4 9B 
  2709)     40400.0  Rx         0001  8  05 01 00 0D DC 17 D4 C6 
  2710)     40400.2  Rx         0001  8  05 01 08 00 D4 B6 06 00 
  2711)     40400.5  Rx         0001  8  05 01 DA E0 18 39 0D 26 
  2712)     40402.8  Rx         0001  2  02 01 
  2713)     40403.4  Rx         0002  6  02 01 00 42 00 00 
  2714)     40404.7  Rx         0001  8  05 01 5C 2B DC 37 D4 36 
  2715)     40405.2  Rx         0001  8  05 01 0C 00 D4 26 0A 00 
  2716)     40405.7  Rx         0001  8  05 01 D4 56 04 00 D4 46 
  2717)     40406.1  Rx         0001  8  05 01 02 00 D7 50 81 03 
  2718)     40406.6  Rx         0001  8  05 01 D4 AB 22 0D D4 9B 
  2719)     40407.9  Rx         0001  8  05 01 20 0D DA E0 18 39 
  2720)     40409.9  Rx         0001  8  05 01 0D 13 28 F2 B9 9F 
  2721)     40410.2  Rx         0001  8  05 01 DC 37 D4 36 0C 00 
  2722)     40410.5  Rx         0001  8  05 01 D4 26 0A 00 D4 56 
  2723)     40410.8  Rx         0001  8  05 01 04 00 D4 46 02 00 
  2724)     40411.2  Rx         0001  8  05 01 DC 17 D4 C6 08 00 
  2725)     40412.7  Rx         0001  2  02 01 
  2726)     40413.4  Rx         0002  6  02 01 00 42 00 00 
  2727)     40415.4  Rx         0001  8  05 01 D4 B6 06 00 DA E0 
  2728)     40417.5  Rx         0001  8  05 01 3E 39 08 F2 48 80 
  2729)     40418.9  Rx         0001  8  05 01 2D 02 A7 58 A7 A7 
  2730)     40419.4  Rx         0001  8  05 01 06 F6 0E 00 0D AD 
  2731)     40419.7  Rx         0001  8  05 01 98 AF 98 9F 98 8F 
  2732)     40421.1  Rx         0001  8  05 01 98 7F 98 6F DB 00 
  2733)     40421.5  Rx         0001  8  05 01 88 6F 88 8F F1 64 
  2734)     40421.9  Rx         0001  8  05 01 E0 0E 47 F6 80 00 
  2735)     40422.2  Rx         0001  8  05 01 9D 56 C0 68 5C 28 
  2736)     40422.6  Rx         0001  8  05 01 06 F8 00 54 A8 B8 
  2737)     40422.9  Rx         0001  8  05 01 7C DB 68 B3 3D 03 
  2738)     40425.2  Rx         0001  2  02 01 
  2739)     40425.8  Rx         0002  6  02 01 00 42 00 00 
  2740)     40427.2  Rx         0001  8  05 01 E6 FE 21 00 0D 4D 
  2741)     40427.5  Rx         0001  8  05 01 48 B2 3D 49 A9 98 
  2742)     40428.0  Rx         0001  8  05 01 C0 9B 5C 5B DA E0 
  2743)     40428.3  Rx         0001  8  05 01 7E 38 DC 4C A8 6B 
  2744)     40428.6  Rx         0001  8  05 01 C0 CB DA E0 12 39 
  2745)     40428.8  Rx         0001  8  05 01 F4 98 02 00 C0 9C 
  2746)     40429.3  Rx         0001  8  05 01 5C 5C E0 0D 06 FC 
  2747)     40429.6  Rx         0001  8  05 01 1C 10 16 FD 20 00 
  2748)     40429.9  Rx         0001  8  05 01 F0 5C 66 FC FF 3F 
  2749)     40430.2  Rx         0001  8  05 01 7C E5 5C 2D 70 D5 
  2750)     40430.6  Rx         0001  8  05 01 DC 4D A8 CC A8 D8 
  2751)     40433.0  Rx         0001  2  02 01 
  2752)     40433.7  Rx         0002  6  02 01 00 42 00 00 
  2753)     40435.2  Rx         0001  8  05 01 8A FD 1D B0 9A FB 
  2754)     40435.6  Rx         0001  8  05 01 03 40 E6 FE 2C 00 
  2755)     40436.1  Rx         0001  8  05 01 0D 1B 8A FC 19 30 
  2756)     40437.0  Rx         0001  8  05 01 E6 FE 2D 00 E1 07 
  2757)     40438.0  Rx         0001  8  05 01 0D 0D C0 9B DA E0 
  2758)     40438.5  Rx         0001  8  05 01 12 39 9A FB 03 30 
  2759)     40438.9  Rx         0001  8  05 01 E0 0E E1 17 0D 05 
  2760)     40439.2  Rx         0001  8  05 01 F1 46 F1 59 DA E0 
  2761)     40440.2  Rx         0001  8  05 01 FE 2E F1 94 41 9C 
  2762)     40441.4  Rx         0001  8  05 01 2D 06 49 70 2D EF 
  2763)     40441.7  Rx         0001  8  05 01 0D 03 9A FB 01 80 
  2764)     40444.0  Rx         0001  2  02 01 
  2765)     40444.6  Rx         0002  6  02 01 00 42 00 00 
  2766)     40447.0  Rx         0001  8  05 01 E0 2E A8 B8 7C 8B 
  2767)     40447.6  Rx         0001  8  05 01 68 B7 DA E0 86 37 
  2768)     40447.8  Rx         0001  8  05 01 DC 4C A8 DB 0E FD 
  2769)     40448.9  Rx         0001  8  05 01 DC 4C B8 DB 0D 02 
  2770)     40451.6  Rx         0001  8  05 01 E6 FE 29 00 F0 2E 
  2771)     40453.1  Rx         0001  8  05 01 98 8F 98 6F DB 00 
  2772)     40454.8  Rx         0001  8  05 01 88 6F 88 8F 88 9F 
  2773)     40455.8  Rx         0001  8  05 01 E0 0E 47 F4 80 00 
  2774)     40457.6  Rx         0001  8  05 01 8D 03 E6 FE 1F 00 
  2775)     40458.9  Rx         0001  8  05 01 0D 53 C0 45 5C 25 
  2776)     40459.9  Rx         0001  8  05 01 06 F5 00 54 A8 B5 
  2777)     40461.9  Rx         0001  2  02 01 
  2778)     40462.6  Rx         0002  6  02 01 00 42 00 00 
  2779)     40464.1  Rx         0001  8  05 01 7C DB 68 B3 3D 03 
  2780)     40464.5  Rx         0001  8  05 01 E6 FE 21 00 0D 48 
  2781)     40464.8  Rx         0001  8  05 01 A9 65 48 B1 3D 0D 
  2782)     40465.0  Rx         0001  8  05 01 C0 6B 5C 5B DA E0 
  2783)     40465.2  Rx         0001  8  05 01 86 35 E1 24 E1 05 
  2784)     40465.5  Rx         0001  8  05 01 DA E0 32 2D DA E0 
  2785)     40465.8  Rx         0001  8  05 01 C6 36 04 8F 56 5B 
  2786)     40466.2  Rx         0001  8  05 01 0D 38 48 B2 3D 36 
  2787)     40466.6  Rx         0001  8  05 01 C0 68 5C 58 E0 09 
  2788)     40466.8  Rx         0001  8  05 01 06 F8 04 10 DA E0 
  2789)     40467.1  Rx         0001  8  05 01 EA 34 DC 49 A8 68 
  2790)     40469.3  Rx         0001  2  02 01 
  2791)     40470.0  Rx         0002  6  02 01 00 42 00 00 
  2792)     40471.5  Rx         0001  8  05 01 7C 86 F1 9C 0D 24 
  2793)     40471.9  Rx         0001  8  05 01 C0 C3 F1 9C 5C 53 
  2794)     40472.2  Rx         0001  8  05 01 F0 B3 DA E0 A6 38 
  2795)     40472.5  Rx         0001  8  05 01 DC 4C A8 2B F1 C4 
  2796)     40472.7  Rx         0001  8  05 01 F0 B3 DA E0 86 35 
  2797)     40473.0  Rx         0001  8  05 01 E0 0B 06 F3 00 10 
  2798)     40473.4  Rx         0001  8  05 01 16 FB 20 00 F0 C3 
  2799)     40473.7  Rx         0001  8  05 01 66 F3 FF 3F 7C EC 
  2800)     40474.0  Rx         0001  8  05 01 5C 2B 70 BC DC 4B 
  2801)     40474.3  Rx         0001  8  05 01 A8 C3 66 FC F0 FF 
  2802)     40474.5  Rx         0001  8  05 01 DC 4B B8 C3 E1 24 
  2803)     40476.4  Rx         0001  2  02 01 
  2804)     40477.0  Rx         0002  6  02 01 00 42 00 00 
  2805)     40478.3  Rx         0001  8  05 01 E1 05 F1 69 DA E0 
  2806)     40478.6  Rx         0001  8  05 01 32 2D 04 8F 56 5B 
  2807)     40479.0  Rx         0001  8  05 01 DC 49 A8 28 41 94 
  2808)     40479.6  Rx         0001  8  05 01 3D D8 DA E0 C6 36 
  2809)     40481.2  Rx         0001  8  05 01 F0 2E 98 9F 98 8F 
  2810)     40481.4  Rx         0001  8  05 01 98 6F DB 00 DA E0 
  2811)     40481.7  Rx         0001  8  05 01 30 32 7A F6 F6 10 
  2812)     40482.2  Rx         0001  8  05 01 48 50 2D 46 43 FA 
  2813)     40482.5  Rx         0001  8  05 01 1E FF 2D 2E 48 10 
  2814)     40482.8  Rx         0001  8  05 01 2D 44 43 F2 1E FF 
  2815)     40483.4  Rx         0001  8  05 01 2D 38 00 15 26 F1 
