;$FILEVERSION=1.1
;$STARTTIME=46071.8527949074
;
;   Start time: 2/18/2026 20:28:01.480.0
;   Generated by PCAN-View v5.3.2.952
;
;   Message Number
;   |         Time Offset (ms)
;   |         |        Type
;   |         |        |        ID (hex)
;   |         |        |        |     Data Length
;   |         |        |        |     |   Data Bytes (hex) ...
;   |         |        |        |     |   |
;---+--   ----+----  --+--  ----+---  +  -+ -- -- -- -- -- -- --
     1)      1244.0  Rx         0001  7  11 FF 00 00 00 00 00 
     2)      1244.3  Rx         0001  7  11 01 81 16 92 AE 01 
     3)      1245.0  Rx         0002  6  11 01 81 16 92 AE 
     4)      1247.9  Rx         0001  6  19 01 9C 78 1D EA 
     5)      1248.7  Rx         0002  3  19 01 01 
     6)      1249.9  Rx         0001  7  11 01 81 16 92 AE 01 
     7)      1250.5  Rx         0002  6  11 01 81 16 92 AE 
     8)      1268.4  Rx         0001  8  0C 01 00 C1 00 00 FF FF 
     9)      3105.8  Rx         0002  3  0C 01 01 
    10)      3107.2  Rx         0001  8  0C 01 00 C2 00 00 DE 7F 
    11)      4704.6  Rx         0002  3  0C 01 01 
    12)      4706.8  Rx         0001  6  0D 01 00 E0 80 00 
    13)      4707.4  Rx         0002  2  0D 01 \
    up to bootloader
    14)      4708.5  Rx         0001  8  05 01 00 00 06 02 EA 27 
    15)      4708.5  Rx         0001  8  05 01 92 6E EA 17 D7 BE 
    16)      4708.6  Rx         0001  8  05 01 01 00 00 00 80 00 
    17)      4708.6  Rx         0001  8  05 01 C1 00 00 DE 01 00 
    18)      4708.6  Rx         0001  8  05 01 30 A2 02 A7 E1 25 
    19)      4708.7  Rx         0001  8  05 01 06 E6 01 00 00 00 
    20)      4708.7  Rx         0001  8  05 01 EA 1D 78 9C 00 00 
    21)      4708.7  Rx         0001  8  05 01 00 00 00 00 00 00 
    22)      4708.8  Rx         0001  8  05 01 00 00 00 00 00 00 
    23)      4708.8  Rx         0001  8  05 01 00 00 EE 77 C2 00 
    24)      4708.8  Rx         0001  8  05 01 00 00 00 00 01 00 
    25)      4710.7  Rx         0001  2  02 01 
    26)      4711.8  Rx         0002  6  02 01 00 42 00 00 
    27)      4713.0  Rx         0001  8  05 01 00 00 00 00 00 00 
    28)      4713.0  Rx         0001  8  05 01 02 00 00 00 7C 4F 
    29)      4713.0  Rx         0001  8  05 01 0A 21 00 00 00 00 
    30)      4713.0  Rx         0001  8  05 01 F4 01 00 00 00 00 
    31)      4713.1  Rx         0001  8  05 01 00 00 00 00 00 00 
    32)      4713.1  Rx         0001  8  05 01 B9 44 49 29 00 00 
    33)      4713.1  Rx         0001  8  05 01 00 00 00 00 00 00 
    34)      4713.2  Rx         0001  8  05 01 00 00 00 00 00 00 
    35)      4713.2  Rx         0001  8  05 01 00 00 00 00 00 00 
    36)      4713.2  Rx         0001  8  05 01 00 00 00 00 83 C7 
    37)      4713.3  Rx         0001  8  05 01 74 80 88 0F 88 1F 
    38)      4714.7  Rx         0001  2  02 01 
    39)      4716.3  Rx         0002  6  02 01 00 42 00 00 
    40)      4717.4  Rx         0001  8  05 01 88 6F 88 7F 88 8F 
    41)      4717.4  Rx         0001  8  05 01 88 9F 88 AF 26 FF 
    42)      4717.4  Rx         0001  8  05 01 0E 00 F0 14 E0 09 
    43)      4717.5  Rx         0001  8  05 01 E4 6F 08 00 C4 4F 
    44)      4717.5  Rx         0001  8  05 01 0A 00 C4 5F 0C 00 
    45)      4717.5  Rx         0001  8  05 01 08 14 18 50 F0 C1 
    46)      4727.5  Rx         0001  8  05 01 F2 F8 10 FF C4 5F 
    47)      4727.6  Rx         0001  8  05 01 02 00 DC 05 B8 9C 
    48)      4727.6  Rx         0001  8  05 01 08 C2 18 50 F1 04 
    49)      4727.6  Rx         0001  8  05 01 E0 0B DC 05 B8 BC 
    50)      4727.6  Rx         0001  8  05 01 C0 0B E6 FC 1C 00 
    51)      4729.0  Rx         0001  2  02 01 
    52)      4729.6  Rx         0002  6  02 01 00 42 00 00 
    53)      4730.6  Rx         0001  8  05 01 1B BC BE 88 F1 15 
    54)      4730.7  Rx         0001  8  05 01 F2 F6 0C FE F2 F7 
    55)      4730.7  Rx         0001  8  05 01 0E FE E6 FB 0E A3 
    56)      4730.7  Rx         0001  8  05 01 E6 FC 00 00 00 7B 
    57)      4730.8  Rx         0001  8  05 01 10 6C C0 1D F0 E9 
    58)      4730.8  Rx         0001  8  05 01 F0 B7 F0 C6 00 DD 
    59)      4730.8  Rx         0001  8  05 01 18 E0 06 FB 0C 00 
    60)      4730.9  Rx         0001  8  05 01 18 C0 00 DD 10 EE 
    61)      4730.9  Rx         0001  8  05 01 00 BD 10 CE C4 BF 
    62)      4730.9  Rx         0001  8  05 01 06 00 C4 CF 04 00 
    63)      4730.9  Rx         0001  8  05 01 DC 0C A8 2B 08 B2 
    64)      4733.1  Rx         0001  2  02 01 
    65)      4733.9  Rx         0002  6  02 01 00 42 00 00 
    66)      4734.9  Rx         0001  8  05 01 18 C0 7C B8 68 81 
    67)      4735.0  Rx         0001  8  05 01 DC 0C A8 3B DA C2 
    68)      4735.0  Rx         0001  8  05 01 92 9F F2 FB 10 FF 
    69)      4735.0  Rx         0001  8  05 01 4A F8 FB 0B F6 FB 
    70)      4735.1  Rx         0001  8  05 01 10 FF E0 04 46 F2 
    71)      4735.1  Rx         0001  8  05 01 40 96 38 31 FD 01 
    72)      4735.1  Rx         0001  8  05 01 E0 14 C0 1E F0 A7 
    73)      4735.2  Rx         0001  8  05 01 F0 86 00 AE 18 80 
    74)      4735.2  Rx         0001  8  05 01 DC 08 A9 BA 49 B2 
    75)      4735.2  Rx         0001  8  05 01 8D 7F 49 80 EA 30 
    76)      4735.2  Rx         0001  8  05 01 3E 02 E6 FC 60 F1 
    77)      4737.1  Rx         0001  2  02 01 
    78)      4738.2  Rx         0002  6  02 01 00 42 00 00 
    79)      4739.2  Rx         0001  8  05 01 E0 0D C0 15 C0 0B 
    80)      4739.3  Rx         0001  8  05 01 5C 2B 00 5B F0 BD 
    81)      4739.3  Rx         0001  8  05 01 00 55 10 BB 00 C5 
    82)      4739.3  Rx         0001  8  05 01 10 DB DC 0D A8 BC 
    83)      4739.4  Rx         0001  8  05 01 8A FB 6C 60 C0 1B 
    84)      4739.4  Rx         0001  8  05 01 C0 0C 5C 1B 5C 7C 
    85)      4739.4  Rx         0001  8  05 01 00 BC F0 CB 06 FC 
    86)      4739.4  Rx         0001  8  05 01 18 EA 06 FB 20 EA 
    87)      4739.5  Rx         0001  8  05 01 E0 0D E1 39 DC 1D 
    88)      4739.5  Rx         0001  8  05 01 A8 CC A8 5B DC 08 
    89)      4739.5  Rx         0001  8  05 01 B9 9A F0 B7 F0 46 
    90)      4741.1  Rx         0001  2  02 01 
    91)      4742.5  Rx         0002  6  02 01 00 42 00 00 
    92)      4743.5  Rx         0001  8  05 01 C0 12 08 B6 18 40 
    93)      4743.6  Rx         0001  8  05 01 00 22 18 D0 00 B2 
    94)      4743.6  Rx         0001  8  05 01 10 4D F0 D7 DC 04 
    95)      4743.6  Rx         0001  8  05 01 A8 BB F0 46 08 D3 
    96)      4743.6  Rx         0001  8  05 01 18 40 00 DE 18 40 
    97)      4743.7  Rx         0001  8  05 01 DC 04 A9 9D 49 91 
    98)      4743.7  Rx         0001  8  05 01 3D 04 F0 D5 20 DC 
    99)      4743.7  Rx         0001  8  05 01 F0 C5 0D 02 F0 DC 
   100)      4743.8  Rx         0001  8  05 01 20 D5 20 CB 48 D0 
   101)      4743.8  Rx         0001  8  05 01 2D 2B E6 FB 10 27 
   102)      4743.8  Rx         0001  8  05 01 1B DB E6 F4 6A 18 
   103)      4745.1  Rx         0001  2  02 01 
   104)      4746.7  Rx         0002  6  02 01 00 42 00 00 
   105)      4747.8  Rx         0001  8  05 01 F2 F3 0C FE F2 F2 
   106)      4747.9  Rx         0001  8  05 01 0E FE E0 05 DA C2 
   107)      4747.9  Rx         0001  8  05 01 5A 82 D4 BF 02 00 
   108)      4747.9  Rx         0001  8  05 01 DC 0B B8 21 08 12 
   109)      4748.0  Rx         0001  8  05 01 18 B0 E6 F4 6A 18 
   110)      4748.0  Rx         0001  8  05 01 DC 0B B8 31 E6 FB 
   111)      4748.0  Rx         0001  8  05 01 10 27 1B CB D4 BF 
   112)      4748.1  Rx         0001  8  05 01 0A 00 F2 F3 0C FE 
   113)      4748.1  Rx         0001  8  05 01 F2 F2 0E FE E0 05 
   114)      4748.1  Rx         0001  8  05 01 DA C2 5A 82 D4 CF 
   115)      4748.1  Rx         0001  8  05 01 0C 00 DC 0C B8 2B 
   116)      4750.1  Rx         0001  2  02 01 
   117)      4751.1  Rx         0002  6  02 01 00 42 00 00 
   118)      4752.2  Rx         0001  8  05 01 08 B2 18 C0 DC 0C 
   119)      4752.2  Rx         0001  8  05 01 B8 3B 0D 6D 06 F7 
   120)      4752.2  Rx         0001  8  05 01 18 00 18 60 C0 1B 
   121)      4752.2  Rx         0001  8  05 01 00 7B 18 60 DC 06 
   122)      4752.3  Rx         0001  8  05 01 A9 97 3D 06 E6 F9 
   123)      4752.3  Rx         0001  8  05 01 65 00 E1 19 DC 06 
   124)      4752.3  Rx         0001  8  05 01 B9 97 0D 5E E6 F9 
   125)      4752.4  Rx         0001  8  05 01 64 00 0D 5B 49 81 
   126)      4752.4  Rx         0001  8  05 01 EA 30 F0 02 F0 4F 
   127)      4752.4  Rx         0001  8  05 01 66 F4 FF 3F 76 F4 
   128)      4752.4  Rx         0001  8  05 01 00 C0 F4 4F 08 00 
   129)      4754.0  Rx         0001  2  02 01 
   130)      4755.3  Rx         0002  6  02 01 00 42 00 00 
   131)      4756.4  Rx         0001  8  05 01 E6 F5 00 00 DA C2 
   132)      4756.4  Rx         0001  8  05 01 6C 9C A9 9F E0 09 
   133)      4756.5  Rx         0001  8  05 01 49 91 2D 01 E0 19 
   134)      4756.5  Rx         0001  8  05 01 06 F9 66 00 C0 0B 
   135)      4756.5  Rx         0001  8  05 01 5C 7B 06 FB 46 EA 
   136)      4756.5  Rx         0001  8  05 01 E0 FC C0 1D 5C 2D 
   137)      4756.5  Rx         0001  8  05 01 4C CD 91 C0 C0 0D 
   138)      4756.6  Rx         0001  8  05 01 5C 3D C0 1E 5C 1E 
   139)      4756.6  Rx         0001  8  05 01 00 DE 06 FD 60 F1 
   140)      4756.6  Rx         0001  8  05 01 A8 7D 66 F7 3F FF 
   141)      4756.6  Rx         0001  8  05 01 D1 30 A8 6B 60 6C 
   142)      4758.1  Rx         0001  2  02 01 
   143)      4759.6  Rx         0002  6  02 01 00 42 00 00 
   144)      4760.7  Rx         0001  8  05 01 B8 7D B8 6B E1 09 
   145)      4760.8  Rx         0001  8  05 01 DC 08 B9 9A C0 0B 
   146)      4760.8  Rx         0001  8  05 01 5C 7B 06 FB 54 EA 
   147)      4760.8  Rx         0001  8  05 01 E0 0C E0 3D C0 1E 
   148)      4760.8  Rx         0001  8  05 01 5C 1E 4C DE DC 0C 
   149)      4760.9  Rx         0001  8  05 01 B8 DB C0 0B 5C 7B 
   150)      4760.9  Rx         0001  8  05 01 06 FB 46 EA E0 4C 
   151)      4761.0  Rx         0001  8  05 01 C0 1D 5C 2D 4C CD 
   152)      4761.1  Rx         0001  8  05 01 C0 0D 5C 3D C0 1E 
   153)      4761.1  Rx         0001  8  05 01 5C 1E 00 DE 06 FD 
   154)      4761.1  Rx         0001  8  05 01 60 F1 A8 7D 76 F7 
   155)      4763.0  Rx         0001  2  02 01 
   156)      4764.0  Rx         0002  6  02 01 00 42 00 00 
   157)      4765.0  Rx         0001  8  05 01 40 00 D1 30 A8 6B 
   158)      4765.0  Rx         0001  8  05 01 70 6C B8 7D B8 6B 
   159)      4765.1  Rx         0001  8  05 01 D4 2F 06 00 D4 3F 
   160)      4765.1  Rx         0001  8  05 01 04 00 DA C2 74 96 
   161)      4765.2  Rx         0001  8  05 01 0D 02 E6 F9 65 00 
   162)      4765.2  Rx         0001  8  05 01 F0 29 06 FF 0E 00 
   163)      4765.2  Rx         0001  8  05 01 98 AF 98 9F 98 8F 
   164)      4765.3  Rx         0001  8  05 01 98 7F 98 6F 98 1F 
   165)      4765.3  Rx         0001  8  05 01 98 0F DB 00 88 0F 
   166)      4765.3  Rx         0001  8  05 01 88 1F 88 6F 88 7F 
   167)      4765.3  Rx         0001  8  05 01 88 8F 88 9F 88 AF 
   168)      4767.0  Rx         0001  2  02 01 
   169)      4768.2  Rx         0002  6  02 01 00 42 00 00 
   170)      4769.3  Rx         0001  8  05 01 26 FF 10 00 F0 8F 
   171)      4769.3  Rx         0001  8  05 01 F0 7B F0 9C C4 D8 
   172)      4769.3  Rx         0001  8  05 01 0C 00 C4 E8 0A 00 
   173)      4769.3  Rx         0001  8  05 01 D4 B8 1E 00 C4 B8 
   174)      4769.4  Rx         0001  8  05 01 08 00 D4 B8 20 00 
   175)      4769.4  Rx         0001  8  05 01 C4 B8 06 00 D4 B8 
   176)      4769.4  Rx         0001  8  05 01 22 00 C4 B8 04 00 
   177)      4769.4  Rx         0001  8  05 01 D4 B8 24 00 C4 B8 
   178)      4769.4  Rx         0001  8  05 01 02 00 D4 18 26 00 
   179)      4769.5  Rx         0001  8  05 01 D4 08 28 00 F1 88 
   180)      4769.5  Rx         0001  8  05 01 3D 04 F0 B2 F0 C3 
   181)      4771.2  Rx         0001  2  02 01 
   182)      4772.5  Rx         0002  6  02 01 00 42 00 00 
   183)      4773.6  Rx         0001  8  05 01 08 B7 0D 04 F0 B2 
   184)      4773.8  Rx         0001  8  05 01 F0 C3 06 FB 0C 00 
   185)      4774.0  Rx         0001  8  05 01 18 C0 DC 0C A9 9B 
   186)      4774.1  Rx         0001  8  05 01 C0 9B E0 EC 1B BC 
   187)      4774.2  Rx         0001  8  05 01 F0 CF F2 FB 0E FE 
   188)      4774.3  Rx         0001  8  05 01 08 B2 20 FB F0 BF 
   189)      4774.5  Rx         0001  8  05 01 08 B2 B8 CF C4 B8 
   190)      4774.6  Rx         0001  8  05 01 0E 00 49 80 3D 05 
   191)      4774.7  Rx         0001  8  05 01 F0 A2 F0 63 06 FA 
   192)      4774.7  Rx         0001  8  05 01 1C 00 0D 04 F0 A2 
   193)      4774.8  Rx         0001  8  05 01 F0 63 06 FA 20 00 
   194)      4776.1  Rx         0001  2  02 01 
   195)      4776.9  Rx         0002  6  02 01 00 42 00 00 
   196)      4777.9  Rx         0001  8  05 01 18 60 49 80 3D 04 
   197)      4778.2  Rx         0001  8  05 01 F0 B2 F0 C3 08 B6 
   198)      4778.3  Rx         0001  8  05 01 0D 04 F0 B2 F0 C3 
   199)      4778.3  Rx         0001  8  05 01 06 FB 0D 00 18 C0 
   200)      4778.4  Rx         0001  8  05 01 DC 0C A9 9B C0 9B 
   201)      4778.4  Rx         0001  8  05 01 49 80 3D 02 08 27 
   202)      4778.4  Rx         0001  8  05 01 0D 02 06 F2 0C 00 
   203)      4778.4  Rx         0001  8  05 01 18 30 DC 03 A9 92 
   204)      4778.5  Rx         0001  8  05 01 C0 93 F0 2B D4 B8 
   205)      4778.5  Rx         0001  8  05 01 0E 00 F0 5B 2D 09 
   206)      4778.5  Rx         0001  8  05 01 7C E5 5C 15 D4 55 
   207)      4780.1  Rx         0001  2  02 01 
   208)      4781.1  Rx         0002  6  02 01 00 42 00 00 
   209)      4782.2  Rx         0001  8  05 01 00 FE 4A F5 FB 0E 
   210)      4782.3  Rx         0001  8  05 01 4A F5 FB 1F 7C 25 
   211)      4782.3  Rx         0001  8  05 01 F0 C8 66 FC FF 3F 
   212)      4782.3  Rx         0001  8  05 01 76 FC 00 C0 F0 4B 
   213)      4782.4  Rx         0001  8  05 01 F1 56 F0 BC E6 FC 
   214)      4782.4  Rx         0001  8  05 01 00 00 DA C1 DE B8 
   215)      4782.4  Rx         0001  8  05 01 DC 06 B8 2A E0 0A 
   216)      4782.5  Rx         0001  8  05 01 D4 68 0E 00 A9 98 
   217)      4782.5  Rx         0001  8  05 01 EA 21 5E 05 D4 B6 
   218)      4782.5  Rx         0001  8  05 01 0C 00 D4 C6 0A 00 
   219)      4782.6  Rx         0001  8  05 01 26 FC A0 00 38 B0 
   220)      4784.0  Rx         0001  2  02 01 
   221)      4785.5  Rx         0002  6  02 01 00 42 00 00 
   222)      4786.5  Rx         0001  8  05 01 46 FC 65 06 38 B0 
   223)      4786.6  Rx         0001  8  05 01 EA E0 4E 05 5C 1C 
   224)      4786.6  Rx         0001  8  05 01 D7 00 C2 00 D4 CC 
   225)      4786.6  Rx         0001  8  05 01 62 A9 9C 0C F0 46 
   226)      4786.7  Rx         0001  8  05 01 F0 56 2D 09 7C E5 
   227)      4786.7  Rx         0001  8  05 01 5C 15 D4 55 00 FE 
   228)      4786.7  Rx         0001  8  05 01 4A F5 F4 0E 4A F5 
   229)      4786.8  Rx         0001  8  05 01 F4 1F 7C 25 F0 27 
   230)      4786.8  Rx         0001  8  05 01 F0 39 DA C1 5C 24 
   231)      4786.8  Rx         0001  8  05 01 F0 46 F0 56 2D 09 
   232)      4786.9  Rx         0001  8  05 01 7C E5 5C 15 D4 55 
   233)      4788.0  Rx         0001  2  02 01 
   234)      4789.8  Rx         0002  6  02 01 00 42 00 00 
   235)      4790.9  Rx         0001  8  05 01 00 FE 4A F5 F4 0E 
   236)      4790.9  Rx         0001  8  05 01 4A F5 F4 1F 7C 25 
   237)      4790.9  Rx         0001  8  05 01 F0 27 F0 39 DA C1 
   238)      4791.0  Rx         0001  8  05 01 5C 24 F0 46 F0 56 
   239)      4791.0  Rx         0001  8  05 01 2D 09 7C E5 5C 15 
   240)      4791.0  Rx         0001  8  05 01 D4 55 00 FE 4A F5 
   241)      4791.1  Rx         0001  8  05 01 F4 0E 4A F5 F4 1F 
   242)      4791.1  Rx         0001  8  05 01 7C 25 F0 27 F0 39 
   243)      4791.1  Rx         0001  8  05 01 DA C1 5C 24 0D 4B 
   244)      4791.2  Rx         0001  8  05 01 F0 46 F0 56 2D 09 
   245)      4791.2  Rx         0001  8  05 01 7C E5 5C 15 D4 55 
   246)      4793.1  Rx         0001  2  02 01 
   247)      4794.1  Rx         0002  6  02 01 00 42 00 00 
   248)      4795.2  Rx         0001  8  05 01 00 FE 4A F5 F4 0E 
   249)      4795.2  Rx         0001  8  05 01 4A F5 F4 1F 7C 25 
   250)      4795.2  Rx         0001  8  05 01 D4 28 08 00 D4 38 
   251)      4795.3  Rx         0001  8  05 01 06 00 DA C1 98 6D 
   252)      4795.3  Rx         0001  8  05 01 0D 48 F0 B6 F0 C6 
   253)      4795.3  Rx         0001  8  05 01 2D 09 7C EC 5C 1C 
   254)      4795.4  Rx         0001  8  05 01 D4 CC 00 FE 4A FC 
   255)      4795.4  Rx         0001  8  05 01 FB 0E 4A FC FB 1F 
   256)      4795.4  Rx         0001  8  05 01 7C 2C D4 28 0C 00 
   257)      4795.5  Rx         0001  8  05 01 D4 38 0A 00 F0 47 
   258)      4795.5  Rx         0001  8  05 01 F0 59 DA C2 12 A8 
   259)      4797.1  Rx         0001  2  02 01 
   260)      4798.4  Rx         0002  6  02 01 00 42 00 00 
   261)      4799.5  Rx         0001  8  05 01 0D 33 F0 46 F0 56 
   262)      4799.5  Rx         0001  8  05 01 2D 09 7C E5 5C 15 
   263)      4799.6  Rx         0001  8  05 01 D4 55 00 FE 4A F5 
   264)      4799.6  Rx         0001  8  05 01 F4 0E 4A F5 F4 1F 
   265)      4799.6  Rx         0001  8  05 01 7C 25 F0 21 F0 30 
   266)      4799.6  Rx         0001  8  05 01 DA C2 0E 71 0D 22 
   267)      4799.7  Rx         0001  8  05 01 F0 46 F0 56 2D 09 
   268)      4799.7  Rx         0001  8  05 01 7C E5 5C 15 D4 55 
   269)      4799.7  Rx         0001  8  05 01 00 FE 4A F5 F4 0E 
   270)      4799.8  Rx         0001  8  05 01 4A F5 F4 1F 7C 25 
   271)      4799.8  Rx         0001  8  05 01 D4 28 04 00 D4 38 
   272)      4801.1  Rx         0001  2  02 01 
   273)      4802.7  Rx         0002  6  02 01 00 42 00 00 
   274)      4803.8  Rx         0001  8  05 01 02 00 DA C2 2C 98 
   275)      4803.8  Rx         0001  8  05 01 F0 46 F0 56 2D 09 
   276)      4803.9  Rx         0001  8  05 01 7C E5 5C 15 D4 55 
   277)      4803.9  Rx         0001  8  05 01 00 FE 4A F5 F4 0E 
   278)      4803.9  Rx         0001  8  05 01 4A F5 F4 1F 7C 25 
   279)      4804.0  Rx         0001  8  05 01 F0 27 F0 39 DA C1 
   280)      4804.0  Rx         0001  8  05 01 5C 24 06 F6 0E 00 
   281)      4804.0  Rx         0001  8  05 01 08 A1 A9 98 C0 9B 
   282)      4804.0  Rx         0001  8  05 01 40 AB EA C0 12 04 
   283)      4804.1  Rx         0001  8  05 01 D4 B8 0E 00 D4 FB 
   284)      4804.1  Rx         0001  8  05 01 FE FF 06 FF 10 00 
   285)      4806.0  Rx         0001  2  02 01 
   286)      4807.0  Rx         0002  6  02 01 00 42 00 00 
   287)      4808.2  Rx         0001  8  05 01 98 AF 98 9F 98 8F 
   288)      4808.5  Rx         0001  8  05 01 98 7F 98 6F 98 1F 
   289)      4808.6  Rx         0001  8  05 01 98 0F DB 00 28 F2 
   290)      4808.7  Rx         0001  8  05 01 B3 FF 00 03 B3 FF 
   291)      4808.8  Rx         0001  8  05 01 20 03 B3 FF 08 01 
   292)      4808.9  Rx         0001  8  05 01 88 0F 88 1F 88 6F 
   293)      4809.0  Rx         0001  8  05 01 88 7F 88 8F 88 9F 
   294)      4809.0  Rx         0001  8  05 01 88 AF 26 FF 0C 00 
   295)      4809.1  Rx         0001  8  05 01 F0 94 F0 85 E4 4F 
   296)      4809.2  Rx         0001  8  05 01 06 00 F1 25 C4 BF 
   297)      4809.5  Rx         0001  8  05 01 0A 00 C4 CF 08 00 
   298)      4811.1  Rx         0001  2  02 01 
   299)      4811.7  Rx         0002  6  02 01 00 42 00 00 
   300)      4812.8  Rx         0001  8  05 01 84 0F 1C FF F1 94 
   301)      4812.9  Rx         0001  8  05 01 47 F9 37 00 8D 04 
   302)      4812.9  Rx         0001  8  05 01 47 F9 39 00 EA F0 
   303)      4812.9  Rx         0001  8  05 01 CA 05 E6 FB 22 00 
   304)      4812.9  Rx         0001  8  05 01 B8 BF EA 00 C0 07 
   305)      4812.9  Rx         0001  8  05 01 F4 9F 06 00 C0 9B 
   306)      4813.0  Rx         0001  8  05 01 E0 6C 1B BC E6 FC 
   307)      4813.2  Rx         0001  8  05 01 14 A5 F2 FB 0C FE 
   308)      4813.3  Rx         0001  8  05 01 C4 BF 04 00 F2 FB 
   309)      4813.4  Rx         0001  8  05 01 0E FE E6 FD 00 00 
   310)      4813.4  Rx         0001  8  05 01 D4 EF 04 00 00 BC 
   311)      4815.0  Rx         0001  2  02 01 
   312)      4816.1  Rx         0002  6  02 01 00 42 00 00 
   313)      4817.2  Rx         0001  8  05 01 10 ED C4 BF 02 00 
   314)      4817.4  Rx         0001  8  05 01 C4 EF 04 00 DC 0E 
   315)      4817.5  Rx         0001  8  05 01 A9 9B EA 30 0A 06 
   316)      4817.5  Rx         0001  8  05 01 E6 FB 21 00 B8 BF 
   317)      4817.6  Rx         0001  8  05 01 EA 00 C0 07 F0 B8 
   318)      4817.6  Rx         0001  8  05 01 70 B9 2D 06 D4 BF 
   319)      4817.6  Rx         0001  8  05 01 08 00 D4 CF 0A 00 
   320)      4817.7  Rx         0001  8  05 01 70 BC 3D 05 E6 FB 
   321)      4817.8  Rx         0001  8  05 01 1E 00 B8 BF EA 00 
   322)      4817.8  Rx         0001  8  05 01 C0 07 E1 0B F4 9F 
   323)      4817.8  Rx         0001  8  05 01 06 00 47 F9 38 00 
   324)      4819.0  Rx         0001  2  02 01 
   325)      4820.4  Rx         0002  6  02 01 00 42 00 00 
   326)      4821.5  Rx         0001  8  05 01 3D 01 E1 1B F1 9B 
   327)      4821.6  Rx         0001  8  05 01 01 99 01 29 F4 4F 
   328)      4821.6  Rx         0001  8  05 01 06 00 E1 15 DA C2 
   329)      4821.7  Rx         0001  8  05 01 04 7D 41 42 EA 90 
   330)      4821.7  Rx         0001  8  05 01 62 06 E1 09 D4 BF 
   331)      4821.8  Rx         0001  8  05 01 0A 00 D4 CF 08 00 
   332)      4821.8  Rx         0001  8  05 01 DC 0C B9 9B E6 FB 
   333)      4821.8  Rx         0001  8  05 01 46 00 B8 BF EA 00 
   334)      4821.8  Rx         0001  8  05 01 C0 07 49 B0 EA 20 
   335)      4821.9  Rx         0001  8  05 01 90 06 E7 F4 38 00 
   336)      4821.9  Rx         0001  8  05 01 E1 15 E1 06 E1 B7 
   337)      4823.2  Rx         0001  2  02 01 
   338)      4824.8  Rx         0002  6  02 01 00 42 00 00 
   339)      4825.8  Rx         0001  8  05 01 DA C2 5A 6F B8 2F 
   340)      4825.8  Rx         0001  8  05 01 E7 F4 38 00 E7 F6 
   341)      4825.9  Rx         0001  8  05 01 55 00 E1 15 E1 77 
   342)      4825.9  Rx         0001  8  05 01 DA C2 5A 6F A8 BF 
   343)      4825.9  Rx         0001  8  05 01 70 B2 B8 BF 29 22 
   344)      4826.0  Rx         0001  8  05 01 E1 03 F0 39 49 20 
   345)      4826.0  Rx         0001  8  05 01 EA F1 AC 07 DC 08 
   346)      4826.0  Rx         0001  8  05 01 A9 B3 08 31 18 80 
   347)      4826.1  Rx         0001  8  05 01 E0 09 F4 4F 06 00 
   348)      4826.1  Rx         0001  8  05 01 E1 15 DA C2 04 7D 
   349)      4826.2  Rx         0001  8  05 01 F1 44 3D 03 E6 F9 
   350)      4828.2  Rx         0001  2  02 01 
   351)      4829.1  Rx         0002  6  02 01 00 42 00 00 
   352)      4830.1  Rx         0001  8  05 01 46 00 0D 73 D4 DF 
   353)      4830.2  Rx         0001  8  05 01 02 00 D4 EF 04 00 
   354)      4830.2  Rx         0001  8  05 01 08 D2 18 E0 F0 BD 
   355)      4830.3  Rx         0001  8  05 01 F0 CE DC 0C A8 4B 
   356)      4830.3  Rx         0001  8  05 01 08 B2 18 C0 E6 F2 
   357)      4830.3  Rx         0001  8  05 01 0A 02 DC 0C A8 BB 
   358)      4830.4  Rx         0001  8  05 01 DC 0B A9 94 C0 9B 
   359)      4830.4  Rx         0001  8  05 01 1B B2 E6 FA A6 A8 
   360)      4830.4  Rx         0001  8  05 01 F2 F6 0C FE F2 F7 
   361)      4830.5  Rx         0001  8  05 01 0E FE E6 FC 00 00 
   362)      4830.5  Rx         0001  8  05 01 00 7A 10 6C F0 47 
   363)      4832.2  Rx         0001  2  02 01 
   364)      4833.4  Rx         0002  6  02 01 00 42 00 00 
   365)      4834.4  Rx         0001  8  05 01 F0 B6 06 F4 02 01 
   366)      4834.5  Rx         0001  8  05 01 18 B0 E6 F0 A7 A8 
   367)      4834.5  Rx         0001  8  05 01 DC 0B A9 94 C0 94 
   368)      4834.5  Rx         0001  8  05 01 E0 0B 00 44 18 B0 
   369)      4834.5  Rx         0001  8  05 01 00 74 10 6B F0 BD 
   370)      4834.6  Rx         0001  8  05 01 DC 06 B9 B7 F0 4E 
   371)      4834.6  Rx         0001  8  05 01 DC 04 A8 5B 08 B2 
   372)      4834.6  Rx         0001  8  05 01 18 40 E6 F7 00 00 
   373)      4834.7  Rx         0001  8  05 01 DC 04 A8 BB DC 0B 
   374)      4834.8  Rx         0001  8  05 01 A9 95 C0 9B A3 B2 
   375)      4834.9  Rx         0001  8  05 01 00 00 C3 44 20 00 
   376)      4836.3  Rx         0001  2  02 01 
   377)      4837.6  Rx         0002  6  02 01 00 42 00 00 
   378)      4838.7  Rx         0001  8  05 01 C3 BB 08 00 F0 54 
   379)      4838.7  Rx         0001  8  05 01 F0 6B 00 4A 10 BC 
   380)      4838.8  Rx         0001  8  05 01 06 F4 02 01 18 B0 
   381)      4838.8  Rx         0001  8  05 01 00 50 10 67 DC 0B 
   382)      4838.9  Rx         0001  8  05 01 A9 94 C0 9B E0 04 
   383)      4838.9  Rx         0001  8  05 01 00 BB 18 40 00 5B 
   384)      4839.0  Rx         0001  8  05 01 10 64 E1 79 DC 06 
   385)      4839.0  Rx         0001  8  05 01 B9 95 DC 0E A8 BD 
   386)      4839.1  Rx         0001  8  05 01 08 D2 18 E0 DC 0E 
   387)      4839.2  Rx         0001  8  05 01 A8 DD DC 0D A9 9B 
   388)      4839.8  Rx         0001  8  05 01 C0 9B 1B B2 F2 FB 
   389)      4841.2  Rx         0001  2  02 01 
   390)      4841.9  Rx         0002  6  02 01 00 42 00 00 
   391)      4843.0  Rx         0001  8  05 01 0C FE F2 FD 0E FE 
   392)      4843.1  Rx         0001  8  05 01 00 DA 10 BC 06 FD 
   393)      4843.1  Rx         0001  8  05 01 02 01 18 B0 DC 0B 
   394)      4843.1  Rx         0001  8  05 01 A9 9D 47 F9 80 00 
   395)      4843.2  Rx         0001  8  05 01 9D 02 09 91 0D 01 
   396)      4843.2  Rx         0001  8  05 01 E1 09 DC 0B B9 9D 
   397)      4843.2  Rx         0001  8  05 01 A8 BF 70 B9 B8 BF 
   398)      4843.3  Rx         0001  8  05 01 09 31 41 32 EA 80 
   399)      4843.3  Rx         0001  8  05 01 9A 06 D4 BF 0A 00 
   400)      4843.3  Rx         0001  8  05 01 D4 CF 08 00 DC 0C 
   401)      4843.4  Rx         0001  8  05 01 B9 3B F4 4F 06 00 
   402)      4845.2  Rx         0001  2  02 01 
   403)      4846.3  Rx         0002  6  02 01 00 42 00 00 
   404)      4847.5  Rx         0001  8  05 01 DA C1 7E 28 A8 2F 
   405)      4847.6  Rx         0001  8  05 01 06 FF 0C 00 98 AF 
   406)      4847.6  Rx         0001  8  05 01 98 9F 98 8F 98 7F 
   407)      4847.7  Rx         0001  8  05 01 98 6F 98 1F 98 0F 
   408)      4847.8  Rx         0001  8  05 01 94 0F 5E FE 08 F2 
   409)      4847.8  Rx         0001  8  05 01 94 0F 5C FE 08 F2 
   410)      4847.8  Rx         0001  8  05 01 94 0F DE FF 08 F2 
   411)      4847.8  Rx         0001  8  05 01 DB 00 F0 B2 F0 C3 
   412)      4847.9  Rx         0001  8  05 01 08 B2 18 C0 88 0F 
   413)      4847.9  Rx         0001  8  05 01 88 1F 88 6F 88 7F 
   414)      4847.9  Rx         0001  8  05 01 88 8F 88 9F 88 AF 
   415)      4849.4  Rx         0001  2  02 01 
   416)      4850.7  Rx         0002  6  02 01 00 42 00 00 
   417)      4851.9  Rx         0001  8  05 01 F0 E2 F0 53 06 FE 
   418)      4851.9  Rx         0001  8  05 01 14 00 18 50 DC 0C 
   419)      4851.9  Rx         0001  8  05 01 A8 DB 08 B2 18 C0 
   420)      4852.0  Rx         0001  8  05 01 26 FF 0A 00 DC 0C 
   421)      4852.0  Rx         0001  8  05 01 A8 BB 06 FD 08 00 
   422)      4852.0  Rx         0001  8  05 01 18 B0 F0 45 DC 0B 
   423)      4852.0  Rx         0001  8  05 01 A8 CD 08 D2 18 B0 
   424)      4852.1  Rx         0001  8  05 01 F0 82 DC 0B A8 BD 
   425)      4852.1  Rx         0001  8  05 01 F0 DE F0 03 DC 04 
   426)      4852.1  Rx         0001  8  05 01 B8 CD 08 D2 18 40 
   427)      4852.2  Rx         0001  8  05 01 F0 C3 DC 04 B8 BD 
   428)      4854.2  Rx         0001  2  02 01 
   429)      4855.1  Rx         0002  6  02 01 00 42 00 00 
   430)      4856.2  Rx         0001  8  05 01 F0 B2 06 FB 26 00 
   431)      4856.2  Rx         0001  8  05 01 18 C0 C4 BF 02 00 
   432)      4856.3  Rx         0001  8  05 01 C4 CF 04 00 F0 B2 
   433)      4856.3  Rx         0001  8  05 01 F0 C3 08 B6 18 C0 
   434)      4856.4  Rx         0001  8  05 01 D4 4F 04 00 DC 0C 
   435)      4856.5  Rx         0001  8  05 01 A8 DB 08 B2 18 C0 
   436)      4856.6  Rx         0001  8  05 01 06 F2 3C 00 18 30 
   437)      4856.7  Rx         0001  8  05 01 DC 0C A8 BB 06 FD 
   438)      4856.7  Rx         0001  8  05 01 08 00 18 B0 DC 0B 
   439)      4856.8  Rx         0001  8  05 01 A8 CD 08 D2 18 B0 
   440)      4856.8  Rx         0001  8  05 01 DC 0B A8 BD D4 DF 
   441)      4858.2  Rx         0001  2  02 01 
   442)      4859.4  Rx         0002  6  02 01 00 42 00 00 
   443)      4860.5  Rx         0001  8  05 01 02 00 DC 04 B8 CD 
   444)      4860.6  Rx         0001  8  05 01 08 D2 18 40 F0 C0 
   445)      4860.6  Rx         0001  8  05 01 DC 04 B8 BD C4 2F 
   446)      4860.6  Rx         0001  8  05 01 06 00 C4 3F 08 00 
   447)      4860.7  Rx         0001  8  05 01 E0 0D DC 03 B8 D2 
   448)      4860.7  Rx         0001  8  05 01 08 22 18 30 F0 B8 
   449)      4860.7  Rx         0001  8  05 01 06 FB 2E 00 18 C0 
   450)      4860.8  Rx         0001  8  05 01 DC 03 B8 D2 DC 0C 
   451)      4860.8  Rx         0001  8  05 01 A9 9B 49 91 EA 21 
   452)      4860.9  Rx         0001  8  05 01 1A 0A F0 78 F0 B0 
   453)      4860.9  Rx         0001  8  05 01 06 F7 2A 00 18 B0 
   454)      4862.2  Rx         0001  2  02 01 
   455)      4863.7  Rx         0002  6  02 01 00 42 00 00 
   456)      4864.9  Rx         0001  8  05 01 B8 BF F0 B8 F0 C0 
   457)      4864.9  Rx         0001  8  05 01 06 FB 3A 00 18 C0 
   458)      4864.9  Rx         0001  8  05 01 F0 98 F0 A0 06 F9 
   459)      4865.0  Rx         0001  8  05 01 18 00 18 A0 DC 0C 
   460)      4865.0  Rx         0001  8  05 01 A9 9B 3D 0F DC 0A 
   461)      4865.0  Rx         0001  8  05 01 B8 D9 08 92 18 A0 
   462)      4865.1  Rx         0001  8  05 01 DC 0A B8 D9 A8 BF 
   463)      4865.1  Rx         0001  8  05 01 DC 0B B8 D7 08 72 
   464)      4865.1  Rx         0001  8  05 01 18 B0 DC 0B B8 D7 
   465)      4865.2  Rx         0001  8  05 01 EA 00 1A 0A 28 F2 
   466)      4865.2  Rx         0001  8  05 01 E1 19 F0 B8 B9 9F 
   467)      4867.2  Rx         0001  2  02 01 
   468)      4868.1  Rx         0002  6  02 01 00 42 00 00 
   469)      4869.4  Rx         0001  8  05 01 DC 05 A8 2E 08 E2 
   470)      4869.4  Rx         0001  8  05 01 18 50 F0 C0 06 FB 
   471)      4869.4  Rx         0001  8  05 01 0A 00 18 C0 DC 05 
   472)      4869.5  Rx         0001  8  05 01 A8 3E DA C2 7E 8D 
   473)      4869.5  Rx         0001  8  05 01 F0 E2 DC 0C A8 2B 
   474)      4869.5  Rx         0001  8  05 01 08 B2 18 C0 F0 D3 
   475)      4869.6  Rx         0001  8  05 01 DC 0C A8 3B F0 B8 
   476)      4869.6  Rx         0001  8  05 01 F0 C0 06 FB 0E 00 
   477)      4869.6  Rx         0001  8  05 01 18 C0 DA C2 7E 8D 
   478)      4869.7  Rx         0001  8  05 01 F0 42 DC 0C A8 2B 
   479)      4869.7  Rx         0001  8  05 01 08 B2 18 C0 F0 53 
   480)      4871.2  Rx         0001  2  02 01 
   481)      4872.6  Rx         0002  6  02 01 00 42 00 00 
   482)      4874.3  Rx         0001  8  05 01 DC 0C A8 3B DA C2 
   483)      4874.4  Rx         0001  8  05 01 7E 8D F0 B2 F0 C3 
   484)      4874.5  Rx         0001  8  05 01 F0 2E F0 3D DA C2 
   485)      4874.6  Rx         0001  8  05 01 DA 82 F0 B9 F0 CA 
   486)      4874.7  Rx         0001  8  05 01 DC 0C B8 2B 08 B2 
   487)      4874.7  Rx         0001  8  05 01 18 C0 E1 19 DC 0C 
   488)      4874.8  Rx         0001  8  05 01 B8 3B B9 9F D4 BF 
   489)      4874.9  Rx         0001  8  05 01 04 00 D4 CF 06 00 
   490)      4875.0  Rx         0001  8  05 01 DC 0C A8 2B 08 B2 
   491)      4875.1  Rx         0001  8  05 01 18 C0 DC 0C A8 3B 
   492)      4875.2  Rx         0001  8  05 01 F0 B8 F0 C0 06 FB 
   493)      4877.2  Rx         0001  2  02 01 
   494)      4877.8  Rx         0002  6  02 01 00 42 00 00 
   495)      4879.0  Rx         0001  8  05 01 1C 00 18 C0 DA C2 
   496)      4879.1  Rx         0001  8  05 01 7E 8D F0 E2 DC 0C 
   497)      4879.2  Rx         0001  8  05 01 A8 2B 08 B2 18 C0 
   498)      4879.3  Rx         0001  8  05 01 06 F8 20 00 18 00 
   499)      4879.3  Rx         0001  8  05 01 F0 D3 DC 0C A8 3B 
   500)      4879.4  Rx         0001  8  05 01 DA C2 7E 8D F0 42 
   501)      4879.4  Rx         0001  8  05 01 DC 00 A8 28 08 82 
   502)      4879.5  Rx         0001  8  05 01 18 00 F0 53 DC 00 
   503)      4879.5  Rx         0001  8  05 01 A8 38 DA C2 7E 8D 
   504)      4879.6  Rx         0001  8  05 01 F0 B2 F0 C3 F0 2E 
   505)      4879.6  Rx         0001  8  05 01 F0 3D DA C2 DA 82 
   506)      4881.2  Rx         0001  2  02 01 
   507)      4882.2  Rx         0002  6  02 01 00 42 00 00 
   508)      4883.4  Rx         0001  8  05 01 08 F2 F0 B7 A8 CF 
   509)      4883.4  Rx         0001  8  05 01 DC 0C B8 2B 08 B2 
   510)      4883.5  Rx         0001  8  05 01 18 C0 DC 0C B8 3B 
   511)      4883.5  Rx         0001  8  05 01 A8 BF DC 0B A8 47 
   512)      4883.6  Rx         0001  8  05 01 08 72 18 B0 DC 0A 
   513)      4883.6  Rx         0001  8  05 01 A8 29 08 92 18 A0 
   514)      4883.6  Rx         0001  8  05 01 DC 0B A8 57 D4 BF 
   515)      4883.7  Rx         0001  8  05 01 06 00 DC 0A A8 39 
   516)      4883.8  Rx         0001  8  05 01 DA C2 C4 59 E6 F5 
   517)      4883.9  Rx         0001  8  05 01 00 3F E0 04 DA C2 
   518)      4884.0  Rx         0001  8  05 01 08 75 D4 CF 08 00 
   519)      4885.2  Rx         0001  2  02 01 
   520)      4886.6  Rx         0002  6  02 01 00 42 00 00 
   521)      4887.6  Rx         0001  8  05 01 DC 0C B8 2B 08 B2 
   522)      4887.7  Rx         0001  8  05 01 18 C0 DC 0C B8 3B 
   523)      4887.8  Rx         0001  8  05 01 06 FF 0A 00 98 AF 
   524)      4887.8  Rx         0001  8  05 01 98 9F 98 8F 98 7F 
   525)      4887.9  Rx         0001  8  05 01 98 6F 98 1F 98 0F 
   526)      4887.9  Rx         0001  8  05 01 DB 00 F0 0E F0 E5 
   527)      4887.9  Rx         0001  8  05 01 F0 50 F0 0D F0 D4 
   528)      4888.0  Rx         0001  8  05 01 F0 40 F0 0C F0 C3 
   529)      4888.0  Rx         0001  8  05 01 F0 30 F0 0B F0 B2 
   530)      4888.1  Rx         0001  8  05 01 F0 20 88 6F DA C2 
   531)      4888.1  Rx         0001  8  05 01 0E 92 7A FA FA 10 
   532)      4890.3  Rx         0001  2  02 01 
   533)      4890.9  Rx         0002  6  02 01 00 42 00 00 
   534)      4892.0  Rx         0001  8  05 01 48 60 EA 21 44 0C 
   535)      4892.1  Rx         0001  8  05 01 46 F6 FF 07 EA 20 
   536)      4892.1  Rx         0001  8  05 01 30 0C 48 10 EA 21 
   537)      4892.1  Rx         0001  8  05 01 6E 0C 46 F1 FF 07 
   538)      4892.2  Rx         0001  8  05 01 EA 20 5A 0C 20 16 
   539)      4892.2  Rx         0001  8  05 01 06 F1 00 04 F0 6D 
   540)      4892.2  Rx         0001  8  05 01 EA 21 18 0C 88 2F 
   541)      4892.3  Rx         0001  8  05 01 88 3F 88 4F 88 5F 
   542)      4892.3  Rx         0001  8  05 01 5C BE F0 0D 7C 50 
   543)      4892.3  Rx         0001  8  05 01 70 E0 5C BD F0 0C 
   544)      4892.3  Rx         0001  8  05 01 7C 50 70 D0 5C BC 
   545)      4894.3  Rx         0001  2  02 01 
   546)      4895.3  Rx         0002  6  02 01 00 42 00 00 
   547)      4896.3  Rx         0001  8  05 01 F0 0B 7C 50 70 C0 
   548)      4896.4  Rx         0001  8  05 01 5C BB E6 06 00 40 
   549)      4896.4  Rx         0001  8  05 01 E6 07 00 00 7B EE 
   550)      4896.4  Rx         0001  8  05 01 F2 F0 0C FE F2 F5 
   551)      4896.5  Rx         0001  8  05 01 0E FE F6 F0 0C FE 
   552)      4896.5  Rx         0001  8  05 01 E6 07 00 00 7B EE 
   553)      4896.5  Rx         0001  8  05 01 F2 F4 0E FE F0 3D 
   554)      4896.6  Rx         0001  8  05 01 F0 2C 7C 12 4A F3 
   555)      4896.6  Rx         0001  8  05 01 F2 0F 7C 13 F6 F3 
   556)      4896.6  Rx         0001  8  05 01 0C FE F6 F2 0E FE 
   557)      4896.6  Rx         0001  8  05 01 7B EE F2 F3 0E FE 
   558)      4898.3  Rx         0001  2  02 01 
   559)      4899.6  Rx         0002  6  02 01 00 42 00 00 
   560)      4900.7  Rx         0001  8  05 01 1B 53 F2 F3 0C FE 
   561)      4900.7  Rx         0001  8  05 01 F2 F2 0E FE 5C 13 
   562)      4900.7  Rx         0001  8  05 01 38 50 4A F2 F3 F0 
   563)      4900.8  Rx         0001  8  05 01 20 43 38 50 00 44 
   564)      4900.8  Rx         0001  8  05 01 10 55 9D 03 F2 F4 
   565)      4900.9  Rx         0001  8  05 01 1E FF F0 54 1B 5B 
   566)      4900.9  Rx         0001  8  05 01 F2 F3 0C FE F2 F2 
   567)      4901.0  Rx         0001  8  05 01 0E FE 1B 4C F2 FB 
   568)      4901.0  Rx         0001  8  05 01 0C FE 02 F2 0E FE 
   569)      4901.0  Rx         0001  8  05 01 10 3B E0 0B 18 B0 
   570)      4901.1  Rx         0001  8  05 01 1B 5C F2 FC 0C FE 
   571)      4902.3  Rx         0001  2  02 01 
   572)      4903.9  Rx         0002  6  02 01 00 42 00 00 
   573)      4905.1  Rx         0001  8  05 01 02 F3 0E FE 10 BC 
   574)      4905.2  Rx         0001  8  05 01 E0 0C 18 C0 1B 4D 
   575)      4905.2  Rx         0001  8  05 01 F2 F0 0C FE 02 F3 
   576)      4905.2  Rx         0001  8  05 01 0E FE 10 B0 18 C0 
   577)      4905.3  Rx         0001  8  05 01 1B 5D F2 FD 0C FE 
   578)      4905.3  Rx         0001  8  05 01 02 FB 0E FE 10 CD 
   579)      4905.3  Rx         0001  8  05 01 E0 0D 18 D0 1B 4E 
   580)      4905.4  Rx         0001  8  05 01 F2 F0 0C FE 02 FB 
   581)      4905.4  Rx         0001  8  05 01 0E FE 10 C0 18 D0 
   582)      4905.4  Rx         0001  8  05 01 1B 5E F2 F2 0C FE 
   583)      4905.5  Rx         0001  8  05 01 02 FC 0E FE 10 2D 
   584)      4907.2  Rx         0001  2  02 01 
   585)      4908.4  Rx         0002  6  02 01 00 42 00 00 
   586)      4909.4  Rx         0001  8  05 01 F0 EC F0 DB F0 C3 
   587)      4909.5  Rx         0001  8  05 01 91 C0 91 D0 91 E0 
   588)      4909.5  Rx         0001  8  05 01 91 20 1B 5C F2 FB 
   589)      4909.5  Rx         0001  8  05 01 0C FE 42 FB 0E FE 
   590)      4909.6  Rx         0001  8  05 01 1B 4D 02 FB 0C FE 
   591)      4909.6  Rx         0001  8  05 01 F2 F3 0E FE E0 0C 
   592)      4909.6  Rx         0001  8  05 01 18 C0 1B 5D F2 FD 
   593)      4909.7  Rx         0001  8  05 01 0C FE 02 FB 0E FE 
   594)      4909.7  Rx         0001  8  05 01 10 CD E0 0D 18 D0 
   595)      4909.7  Rx         0001  8  05 01 1B 4E F2 F3 0C FE 
   596)      4909.8  Rx         0001  8  05 01 02 FB 0E FE 10 C3 
   597)      4911.3  Rx         0001  2  02 01 
   598)      4912.6  Rx         0002  6  02 01 00 42 00 00 
   599)      4913.8  Rx         0001  8  05 01 18 D0 1B 5E F2 F3 
   600)      4913.8  Rx         0001  8  05 01 0C FE 02 FC 0E FE 
   601)      4913.8  Rx         0001  8  05 01 10 D3 E0 0E 18 E0 
   602)      4913.8  Rx         0001  8  05 01 1B 42 F2 F3 0C FE 
   603)      4913.9  Rx         0001  8  05 01 02 FC 0E FE 10 D3 
   604)      4913.9  Rx         0001  8  05 01 18 E0 1B 52 02 FE 
   605)      4913.9  Rx         0001  8  05 01 0C FE 02 FD 0E FE 
   606)      4914.0  Rx         0001  8  05 01 18 E0 8A FE 05 F0 
   607)      4914.0  Rx         0001  8  05 01 28 11 00 BB 10 CC 
   608)      4914.0  Rx         0001  8  05 01 10 DD 10 EE 98 5F 
   609)      4914.0  Rx         0001  8  05 01 98 4F 98 3F 98 2F 
   610)      4915.3  Rx         0001  2  02 01 
   611)      4917.0  Rx         0002  6  02 01 00 42 00 00 
   612)      4918.1  Rx         0001  8  05 01 3D 1B 70 23 70 24 
   613)      4918.1  Rx         0001  8  05 01 3D 17 46 F5 10 00 
   614)      4918.2  Rx         0001  8  05 01 3D 15 F0 0B 5C 50 
   615)      4918.2  Rx         0001  8  05 01 F0 2C 5C 52 7C BB 
   616)      4918.2  Rx         0001  8  05 01 70 2B F0 3D 5C 53 
   617)      4918.3  Rx         0001  8  05 01 7C BC 70 3C F0 4E 
   618)      4918.3  Rx         0001  8  05 01 5C 54 7C BD 70 4D 
   619)      4918.3  Rx         0001  8  05 01 F0 5E 7C B5 28 11 
   620)      4918.3  Rx         0001  8  05 01 98 6F FA C2 BE 95 
   621)      4918.4  Rx         0001  8  05 01 E0 02 FA C2 86 43 
   622)      4918.4  Rx         0001  8  05 01 70 6C 70 6B EA 30 
   623)      4920.2  Rx         0001  2  02 01 
   624)      4921.3  Rx         0002  6  02 01 00 42 00 00 
   625)      4922.4  Rx         0001  8  05 01 78 0A 46 FE 10 00 
   626)      4922.4  Rx         0001  8  05 01 EA 30 78 0A 28 11 
   627)      4922.4  Rx         0001  8  05 01 98 6F FA C2 D2 95 
   628)      4922.5  Rx         0001  8  05 01 48 E0 3D 15 46 F1 
   629)      4922.5  Rx         0001  8  05 01 FF 07 2D 12 48 10 
   630)      4922.5  Rx         0001  8  05 01 2D 18 98 6F FA C2 
   631)      4922.6  Rx         0001  8  05 01 76 9B 46 F1 FF 07 
   632)      4922.6  Rx         0001  8  05 01 2D 0D 48 10 2D 03 
   633)      4922.6  Rx         0001  8  05 01 98 6F FA C2 54 9B 
   634)      4922.7  Rx         0001  8  05 01 98 6F FA C2 66 9B 
   635)      4922.7  Rx         0001  8  05 01 48 50 2D 05 98 6F 
   636)      4924.3  Rx         0001  2  02 01 
   637)      4925.6  Rx         0002  6  02 01 00 42 00 00 
   638)      4926.7  Rx         0001  8  05 01 FA C2 66 9B 48 50 
   639)      4926.7  Rx         0001  8  05 01 3D FB 98 6F FA C2 
   640)      4926.8  Rx         0001  8  05 01 56 9B 98 6F FA C2 
   641)      4926.8  Rx         0001  8  05 01 EA 95 EC 06 EC 07 
   642)      4926.8  Rx         0001  8  05 01 EC EF EC 2E EC 2F 
   643)      4926.9  Rx         0001  8  05 01 EC F0 EC F2 EC F3 
   644)      4926.9  Rx         0001  8  05 01 EC F4 EC F5 EC F6 
   645)      4926.9  Rx         0001  8  05 01 EC F7 EC F8 EC F9 
   646)      4926.9  Rx         0001  8  05 01 EC FA EC FB EC FC 
   647)      4927.0  Rx         0001  8  05 01 EC FD EC FE E6 FB 
   648)      4927.0  Rx         0001  8  05 01 07 FF D7 40 03 00 
   649)      4928.4  Rx         0001  2  02 01 
   650)      4929.9  Rx         0002  6  02 01 00 42 00 00 
   651)      4931.0  Rx         0001  8  05 01 F6 FB A2 20 E1 09 
   652)      4931.1  Rx         0001  8  05 01 D7 40 02 00 43 F9 
   653)      4931.1  Rx         0001  8  05 01 D3 23 EA 30 84 0E 
   654)      4931.1  Rx         0001  8  05 01 E6 F8 E4 A3 E6 F9 
   655)      4931.2  Rx         0001  8  05 01 00 00 E6 FA 80 A3 
   656)      4931.2  Rx         0001  8  05 01 E6 F6 00 00 E6 FB 
   657)      4931.2  Rx         0001  8  05 01 ED A3 E6 FC 00 00 
   658)      4931.3  Rx         0001  8  05 01 DC 0C A9 9B D7 40 
   659)      4931.3  Rx         0001  8  05 01 02 00 43 F9 EC 23 
   660)      4931.3  Rx         0001  8  05 01 EA 90 EC 0D C0 9B 
   661)      4931.4  Rx         0001  8  05 01 F0 C8 F0 D9 00 CB 
   662)      4933.3  Rx         0001  2  02 01 
   663)      4934.3  Rx         0002  6  02 01 00 42 00 00 
   664)      4935.4  Rx         0001  8  05 01 18 D0 D7 40 02 00 
   665)      4935.5  Rx         0001  8  05 01 F3 F4 F2 23 DC 0D 
   666)      4935.5  Rx         0001  8  05 01 A9 9C C0 9B E0 0C 
   667)      4935.6  Rx         0001  8  05 01 A3 BC 62 00 C3 77 
   668)      4935.7  Rx         0001  8  05 01 20 00 C3 00 08 00 
   669)      4935.7  Rx         0001  8  05 01 E6 FB D4 A3 E6 FC 
   670)      4935.8  Rx         0001  8  05 01 00 00 F0 D7 F0 E0 
   671)      4935.8  Rx         0001  8  05 01 00 DB 10 EC D7 40 
   672)      4935.8  Rx         0001  8  05 01 02 00 F2 F4 F0 23 
   673)      4935.9  Rx         0001  8  05 01 DC 0E A8 3D DA C2 
   674)      4935.9  Rx         0001  8  05 01 32 A0 F0 BA F0 C6 
   675)      4937.4  Rx         0001  2  02 01 
   676)      4938.6  Rx         0002  6  02 01 00 42 00 00 
   677)      4939.7  Rx         0001  8  05 01 00 B7 10 C0 E6 FD 
   678)      4939.8  Rx         0001  8  05 01 00 00 DC 0C A8 BB 
   679)      4939.9  Rx         0001  8  05 01 D7 40 03 00 F6 FB 
   680)      4940.0  Rx         0001  8  05 01 E8 20 D7 40 02 00 
   681)      4940.0  Rx         0001  8  05 01 C2 FB ED 23 28 B1 
   682)      4940.1  Rx         0001  8  05 01 F0 CB BC FC 00 8B 
   683)      4940.2  Rx         0001  8  05 01 10 9C E0 0C DC 09 
   684)      4940.2  Rx         0001  8  05 01 A9 98 C0 9B A3 BC 
   685)      4940.3  Rx         0001  8  05 01 22 00 A3 00 82 03 
   686)      4940.4  Rx         0001  8  05 01 C3 EE 20 00 C3 55 
   687)      4940.4  Rx         0001  8  05 01 08 00 E6 FB 7E A3 
   688)      4942.3  Rx         0001  2  02 01 
   689)      4943.0  Rx         0002  6  02 01 00 42 00 00 
   690)      4944.1  Rx         0001  8  05 01 00 EB 10 5D 06 FE 
   691)      4944.1  Rx         0001  8  05 01 12 00 18 50 C0 9B 
   692)      4944.2  Rx         0001  8  05 01 00 BB 18 C0 00 AB 
   693)      4944.2  Rx         0001  8  05 01 10 6C E0 44 E0 13 
   694)      4944.3  Rx         0001  8  05 01 C0 8B 4C 3B F0 2A 
   695)      4944.3  Rx         0001  8  05 01 F0 C3 DC 06 68 CA 
   696)      4944.3  Rx         0001  8  05 01 40 C3 3D 20 C0 8B 
   697)      4944.4  Rx         0001  8  05 01 28 B4 E0 0C 00 BB 
   698)      4944.5  Rx         0001  8  05 01 18 C0 F0 DE F0 25 
   699)      4944.5  Rx         0001  8  05 01 00 DB 10 2C D7 40 
   700)      4944.6  Rx         0001  8  05 01 03 00 F2 FB 80 20 
   701)      4946.4  Rx         0001  2  02 01 
   702)      4947.3  Rx         0002  6  02 01 00 42 00 00 
   703)      4948.4  Rx         0001  8  05 01 60 B3 40 B3 3D 0C 
   704)      4948.4  Rx         0001  8  05 01 D7 40 02 00 25 8F 
   705)      4948.4  Rx         0001  8  05 01 D2 23 C0 8B 5C 1B 
   706)      4948.5  Rx         0001  8  05 01 06 FB 40 E0 E0 0C 
   707)      4948.5  Rx         0001  8  05 01 DC 0C A8 BB 0D 02 
   708)      4948.5  Rx         0001  8  05 01 E6 FB FF FF DC 02 
   709)      4948.5  Rx         0001  8  05 01 B8 BD 80 74 8D D5 
   710)      4948.6  Rx         0001  8  05 01 D7 40 02 00 25 8F 
   711)      4948.6  Rx         0001  8  05 01 ED 23 6F B8 E6 FB 
   712)      4948.6  Rx         0001  8  05 01 00 02 D7 40 03 00 
   713)      4948.7  Rx         0001  8  05 01 74 FB EC 20 0D 4F 
   714)      4950.3  Rx         0001  2  02 01 
   715)      4951.6  Rx         0002  6  02 01 00 42 00 00 
   716)      4952.6  Rx         0001  8  05 01 C0 9B 28 B1 F0 CB 
   717)      4952.7  Rx         0001  8  05 01 BC FC 00 8B 10 9C 
   718)      4952.7  Rx         0001  8  05 01 E0 0C DC 09 A9 98 
   719)      4952.7  Rx         0001  8  05 01 C0 9B A3 BC 22 00 
   720)      4952.8  Rx         0001  8  05 01 A3 00 82 03 C3 EE 
   721)      4952.8  Rx         0001  8  05 01 20 00 C3 55 08 00 
   722)      4952.8  Rx         0001  8  05 01 E6 FB 7E A3 E6 FD 
   723)      4952.9  Rx         0001  8  05 01 00 00 00 EB 10 5D 
   724)      4952.9  Rx         0001  8  05 01 06 FE 12 00 18 50 
   725)      4952.9  Rx         0001  8  05 01 C0 9B 00 BB 18 C0 
   726)      4952.9  Rx         0001  8  05 01 00 AB 10 6C E0 44 
   727)      4954.4  Rx         0001  2  02 01 
   728)      4955.9  Rx         0002  6  02 01 00 42 00 00 
   729)      4957.0  Rx         0001  8  05 01 E0 13 C0 8B 4C 3B 
   730)      4957.0  Rx         0001  8  05 01 F0 2A F0 C3 DC 06 
   731)      4957.1  Rx         0001  8  05 01 68 CA 40 C3 3D 20 
   732)      4957.1  Rx         0001  8  05 01 C0 8B 28 B4 E0 0C 
   733)      4957.1  Rx         0001  8  05 01 00 BB 18 C0 F0 DE 
   734)      4957.2  Rx         0001  8  05 01 F0 25 00 DB 10 2C 
   735)      4957.2  Rx         0001  8  05 01 D7 40 03 00 F2 FB 
   736)      4957.2  Rx         0001  8  05 01 80 20 60 B3 40 B3 
   737)      4957.3  Rx         0001  8  05 01 3D 0C D7 40 02 00 
   738)      4957.3  Rx         0001  8  05 01 25 8F D2 23 C0 8B 
   739)      4957.3  Rx         0001  8  05 01 5C 1B 06 FB 40 E0 
   740)      4959.4  Rx         0001  2  02 01 
   741)      4960.2  Rx         0002  6  02 01 00 42 00 00 
   742)      4961.3  Rx         0001  8  05 01 E0 0C DC 0C A8 BB 
   743)      4961.4  Rx         0001  8  05 01 0D 02 E6 FB FF FF 
   744)      4961.4  Rx         0001  8  05 01 DC 02 B8 BD 80 74 
   745)      4961.4  Rx         0001  8  05 01 8D D5 6E B8 F2 FB 
   746)      4961.5  Rx         0001  8  05 01 70 FF FC FE FC FD 
   747)      4961.5  Rx         0001  8  05 01 FC FC FC FB FC FA 
   748)      4961.5  Rx         0001  8  05 01 FC F9 FC F8 FC F7 
   749)      4961.5  Rx         0001  8  05 01 FC F6 FC F5 FC F4 
   750)      4961.6  Rx         0001  8  05 01 FC F3 FC F2 FC F0 
   751)      4961.6  Rx         0001  8  05 01 FC 2F FC 2E FC EF 
   752)      4961.6  Rx         0001  8  05 01 FC 07 FC 06 FB 88 
   753)      4963.4  Rx         0001  2  02 01 
   754)      4964.6  Rx         0002  6  02 01 00 42 00 00 
   755)      4965.7  Rx         0001  8  05 01 EC 06 EC 07 EC EF 
   756)      4965.7  Rx         0001  8  05 01 EC 2E EC 2F EC F0 
   757)      4965.7  Rx         0001  8  05 01 EC F2 EC F3 EC F4 
   758)      4965.8  Rx         0001  8  05 01 EC F5 EC F6 EC F7 
   759)      4965.8  Rx         0001  8  05 01 EC F8 EC F9 EC FA 
   760)      4965.8  Rx         0001  8  05 01 EC FB EC FC EC FD 
   761)      4965.9  Rx         0001  8  05 01 EC FE E6 FB 07 FF 
   762)      4965.9  Rx         0001  8  05 01 D7 40 03 00 F6 FB 
   763)      4965.9  Rx         0001  8  05 01 A2 21 E1 19 D7 40 
   764)      4965.9  Rx         0001  8  05 01 02 00 43 F9 D3 23 
   765)      4966.0  Rx         0001  8  05 01 EA 30 C2 10 E6 F8 
   766)      4967.4  Rx         0001  2  02 01 
   767)      4968.9  Rx         0002  6  02 01 00 42 00 00 
   768)      4970.0  Rx         0001  8  05 01 E4 A3 E6 F9 00 00 
   769)      4970.1  Rx         0001  8  05 01 E6 FA 80 A3 E6 F6 
   770)      4970.1  Rx         0001  8  05 01 00 00 E6 FB ED A3 
   771)      4970.1  Rx         0001  8  05 01 E6 FC 00 00 DC 0C 
   772)      4970.2  Rx         0001  8  05 01 A9 9B D7 40 02 00 
   773)      4970.2  Rx         0001  8  05 01 43 F9 EC 23 EA 90 
   774)      4970.2  Rx         0001  8  05 01 2A 10 C0 9B F0 C8 
   775)      4970.3  Rx         0001  8  05 01 F0 D9 00 CB 18 D0 
   776)      4970.3  Rx         0001  8  05 01 D7 40 02 00 F3 F4 
   777)      4970.3  Rx         0001  8  05 01 F2 23 DC 0D A9 9C 
   778)      4970.3  Rx         0001  8  05 01 C0 9B E0 0C A3 BC 
   779)      4972.3  Rx         0001  2  02 01 
   780)      4973.3  Rx         0002  6  02 01 00 42 00 00 
   781)      4974.4  Rx         0001  8  05 01 62 00 C3 77 20 00 
   782)      4974.4  Rx         0001  8  05 01 C3 00 08 00 E6 FB 
   783)      4974.5  Rx         0001  8  05 01 D4 A3 E6 FC 00 00 
   784)      4974.5  Rx         0001  8  05 01 F0 D7 F0 E0 00 DB 
   785)      4974.5  Rx         0001  8  05 01 10 EC D7 40 02 00 
   786)      4974.6  Rx         0001  8  05 01 F2 F4 F0 23 DC 0E 
   787)      4974.6  Rx         0001  8  05 01 A8 3D DA C2 32 A0 
   788)      4974.6  Rx         0001  8  05 01 F0 BA F0 C6 00 B7 
   789)      4974.6  Rx         0001  8  05 01 10 C0 E6 FD 00 00 
   790)      4974.7  Rx         0001  8  05 01 DC 0C A8 BB D7 40 
   791)      4974.7  Rx         0001  8  05 01 03 00 F6 FB E8 21 
   792)      4976.3  Rx         0001  2  02 01 
   793)      4977.6  Rx         0002  6  02 01 00 42 00 00 
   794)      4978.7  Rx         0001  8  05 01 D7 40 02 00 C2 FB 
   795)      4978.7  Rx         0001  8  05 01 ED 23 28 B1 F0 CB 
   796)      4978.8  Rx         0001  8  05 01 BC FC 00 8B 10 9C 
   797)      4978.8  Rx         0001  8  05 01 E0 0C DC 09 A9 98 
   798)      4978.8  Rx         0001  8  05 01 C0 9B A3 BC 22 00 
   799)      4978.8  Rx         0001  8  05 01 A3 00 82 03 C3 EE 
   800)      4978.9  Rx         0001  8  05 01 20 00 C3 55 08 00 
   801)      4978.9  Rx         0001  8  05 01 E6 FB 7E A3 00 EB 
   802)      4978.9  Rx         0001  8  05 01 10 5D 06 FE 12 00 
   803)      4979.0  Rx         0001  8  05 01 18 50 C0 9B 00 BB 
   804)      4979.0  Rx         0001  8  05 01 18 C0 00 AB 10 6C 
   805)      4980.4  Rx         0001  2  02 01 
   806)      4981.9  Rx         0002  6  02 01 00 42 00 00 
   807)      4983.0  Rx         0001  8  05 01 E0 44 E0 13 C0 8B 
   808)      4983.0  Rx         0001  8  05 01 4C 3B F0 2A F0 C3 
   809)      4983.1  Rx         0001  8  05 01 DC 06 68 CA 40 C3 
   810)      4983.1  Rx         0001  8  05 01 3D 20 C0 8B 28 B4 
   811)      4983.1  Rx         0001  8  05 01 E0 0C 00 BB 18 C0 
   812)      4983.2  Rx         0001  8  05 01 F0 DE F0 25 00 DB 
   813)      4983.2  Rx         0001  8  05 01 10 2C D7 40 03 00 
   814)      4983.2  Rx         0001  8  05 01 F2 FB 80 21 60 B3 
   815)      4983.3  Rx         0001  8  05 01 40 B3 3D 0C D7 40 
   816)      4983.3  Rx         0001  8  05 01 02 00 25 8F D2 23 
   817)      4983.3  Rx         0001  8  05 01 C0 8B 5C 1B 06 FB 
   818)      4985.4  Rx         0001  2  02 01 
   819)      4986.2  Rx         0002  6  02 01 00 42 00 00 
   820)      4987.3  Rx         0001  8  05 01 40 E1 E0 0C DC 0C 
   821)      4987.3  Rx         0001  8  05 01 A8 BB 0D 02 E6 FB 
   822)      4987.3  Rx         0001  8  05 01 FF FF DC 02 B8 BD 
   823)      4987.4  Rx         0001  8  05 01 80 74 8D D5 D7 40 
   824)      4987.4  Rx         0001  8  05 01 02 00 25 8F ED 23 
   825)      4987.4  Rx         0001  8  05 01 6F BC E6 FB 00 02 
   826)      4987.5  Rx         0001  8  05 01 D7 40 03 00 74 FB 
   827)      4987.5  Rx         0001  8  05 01 EC 21 0D 4F C0 9B 
   828)      4987.5  Rx         0001  8  05 01 28 B1 F0 CB BC FC 
   829)      4987.6  Rx         0001  8  05 01 00 8B 10 9C E0 0C 
   830)      4987.6  Rx         0001  8  05 01 DC 09 A9 98 C0 9B 
   831)      4989.4  Rx         0001  2  02 01 
   832)      4990.5  Rx         0002  6  02 01 00 42 00 00 
   833)      4991.5  Rx         0001  8  05 01 A3 BC 22 00 A3 00 
   834)      4991.6  Rx         0001  8  05 01 82 03 C3 EE 20 00 
   835)      4991.6  Rx         0001  8  05 01 C3 55 08 00 E6 FB 
   836)      4991.6  Rx         0001  8  05 01 7E A3 E6 FD 00 00 
   837)      4991.6  Rx         0001  8  05 01 00 EB 10 5D 06 FE 
   838)      4991.7  Rx         0001  8  05 01 12 00 18 50 C0 9B 
   839)      4991.7  Rx         0001  8  05 01 00 BB 18 C0 00 AB 
   840)      4991.7  Rx         0001  8  05 01 10 6C E0 44 E0 13 
   841)      4991.8  Rx         0001  8  05 01 C0 8B 4C 3B F0 2A 
   842)      4991.8  Rx         0001  8  05 01 F0 C3 DC 06 68 CA 
   843)      4991.8  Rx         0001  8  05 01 40 C3 3D 20 C0 8B 
   844)      4993.3  Rx         0001  2  02 01 
   845)      4994.8  Rx         0002  6  02 01 00 42 00 00 
   846)      4995.8  Rx         0001  8  05 01 28 B4 E0 0C 00 BB 
   847)      4995.9  Rx         0001  8  05 01 18 C0 F0 DE F0 25 
   848)      4995.9  Rx         0001  8  05 01 00 DB 10 2C D7 40 
   849)      4995.9  Rx         0001  8  05 01 03 00 F2 FB 80 21 
   850)      4996.0  Rx         0001  8  05 01 60 B3 40 B3 3D 0C 
   851)      4996.0  Rx         0001  8  05 01 D7 40 02 00 25 8F 
   852)      4996.0  Rx         0001  8  05 01 D2 23 C0 8B 5C 1B 
   853)      4996.1  Rx         0001  8  05 01 06 FB 40 E1 E0 0C 
   854)      4996.1  Rx         0001  8  05 01 DC 0C A8 BB 0D 02 
   855)      4996.1  Rx         0001  8  05 01 E6 FB FF FF DC 02 
   856)      4996.1  Rx         0001  8  05 01 B8 BD 80 74 8D D5 
   857)      4997.4  Rx         0001  2  02 01 
   858)      4999.1  Rx         0002  6  02 01 00 42 00 00 
   859)      5000.2  Rx         0001  8  05 01 6E BC F2 FB 78 FF 
   860)      5000.5  Rx         0001  8  05 01 FC FE FC FD FC FC 
   861)      5000.5  Rx         0001  8  05 01 FC FB FC FA FC F9 
   862)      5000.6  Rx         0001  8  05 01 FC F8 FC F7 FC F6 
   863)      5000.7  Rx         0001  8  05 01 FC F5 FC F4 FC F3 
   864)      5000.8  Rx         0001  8  05 01 FC F2 FC F0 FC 2F 
   865)      5000.8  Rx         0001  8  05 01 FC 2E FC EF FC 07 
   866)      5000.8  Rx         0001  8  05 01 FC 06 FB 88 DA C2 
   867)      5000.8  Rx         0001  8  05 01 5A A3 26 FF 18 00 
   868)      5000.9  Rx         0001  8  05 01 F0 82 F0 93 E4 8F 
   869)      5000.9  Rx         0001  8  05 01 16 00 F0 A5 C4 BF 
   870)      5002.3  Rx         0001  2  02 01 
   871)      5003.5  Rx         0002  6  02 01 00 42 00 00 
   872)      5004.7  Rx         0001  8  05 01 14 00 C4 CF 12 00 
   873)      5004.7  Rx         0001  8  05 01 C4 DF 10 00 E1 0C 
   874)      5004.8  Rx         0001  8  05 01 C4 EF 0E 00 D4 BF 
   875)      5004.8  Rx         0001  8  05 01 26 00 C4 BF 0C 00 
   876)      5004.9  Rx         0001  8  05 01 D4 0F 28 00 E6 F1 
   877)      5004.9  Rx         0001  8  05 01 C2 00 E6 F2 68 C4 
   878)      5004.9  Rx         0001  8  05 01 D0 83 E0 64 DA C2 
   879)      5005.0  Rx         0001  8  05 01 B6 9B 9C 02 D4 BF 
   880)      5005.0  Rx         0001  8  05 01 12 00 7D 0D E7 FC 
   881)      5005.0  Rx         0001  8  05 01 2D 00 D4 BF 14 00 
   882)      5005.0  Rx         0001  8  05 01 D4 CF 12 00 81 B0 
   883)      5006.3  Rx         0001  2  02 01 
   884)      5007.9  Rx         0002  6  02 01 00 42 00 00 
   885)      5008.9  Rx         0001  8  05 01 18 C0 C4 BF 14 00 
   886)      5009.0  Rx         0001  8  05 01 81 C0 C4 CF 12 00 
   887)      5009.0  Rx         0001  8  05 01 DA C2 CE A7 D4 4F 
   888)      5009.1  Rx         0001  8  05 01 14 00 D4 5F 12 00 
   889)      5009.1  Rx         0001  8  05 01 E0 AB DA C2 CA 88 
   890)      5009.1  Rx         0001  8  05 01 48 90 3D 07 D4 BF 
   891)      5009.2  Rx         0001  8  05 01 12 00 D4 CF 14 00 
   892)      5009.2  Rx         0001  8  05 01 70 BC EA 20 1A 13 
   893)      5009.2  Rx         0001  8  05 01 DA C2 CE A7 DA C2 
   894)      5009.3  Rx         0001  8  05 01 AE A2 F1 D4 49 C0 
   895)      5009.3  Rx         0001  8  05 01 3D 16 F4 9F 16 00 
   896)      5011.4  Rx         0001  2  02 01 
   897)      5012.1  Rx         0002  6  02 01 00 42 00 00 
   898)      5013.2  Rx         0001  8  05 01 47 F9 75 00 2D 09 
   899)      5013.3  Rx         0001  8  05 01 F0 BA 66 FB 18 00 
   900)      5013.3  Rx         0001  8  05 01 46 FB 08 00 3D 03 
   901)      5013.3  Rx         0001  8  05 01 E7 FC 2B 00 0D 08 
   902)      5013.4  Rx         0001  8  05 01 F0 BA 66 FB 18 00 
   903)      5013.4  Rx         0001  8  05 01 46 FB 10 00 3D 02 
   904)      5013.4  Rx         0001  8  05 01 E7 FC 20 00 49 C0 
   905)      5013.4  Rx         0001  8  05 01 2D 09 E0 0B 40 B8 
   906)      5013.5  Rx         0001  8  05 01 38 80 F0 BA 68 B3 
   907)      5013.5  Rx         0001  8  05 01 2D 03 DA C2 54 A7 
   908)      5013.5  Rx         0001  8  05 01 E1 0C 8A FA 12 00 
   909)      5015.4  Rx         0001  2  02 01 
   910)      5016.4  Rx         0002  6  02 01 00 42 00 00 
   911)      5017.4  Rx         0001  8  05 01 E0 07 4A FA F7 10 
   912)      5017.5  Rx         0001  8  05 01 5C 47 06 F7 20 00 
   913)      5017.5  Rx         0001  8  05 01 0D 06 DA C2 0E A7 
   914)      5017.5  Rx         0001  8  05 01 F1 8E DA C2 5E A7 
   915)      5017.6  Rx         0001  8  05 01 28 81 40 89 BD 03 
   916)      5017.6  Rx         0001  8  05 01 C0 DB 40 8B AD F5 
   917)      5017.6  Rx         0001  8  05 01 49 C0 2D 05 DA C2 
   918)      5017.6  Rx         0001  8  05 01 54 A7 0D 02 DA C2 
   919)      5017.7  Rx         0001  8  05 01 EE A7 C0 DB 40 9B 
   920)      5017.7  Rx         0001  8  05 01 AD FB 0D 77 E1 03 
   921)      5017.7  Rx         0001  8  05 01 F4 9F 16 00 47 F9 
   922)      5019.4  Rx         0001  2  02 01 
   923)      5020.7  Rx         0002  6  02 01 00 42 00 00 
   924)      5021.7  Rx         0001  8  05 01 6F 00 2D 01 E1 13 
   925)      5021.7  Rx         0001  8  05 01 DA C2 CE A7 F0 62 
   926)      5021.8  Rx         0001  8  05 01 F0 73 C0 3B 5C 3B 
   927)      5021.8  Rx         0001  8  05 01 06 FB 08 00 D4 4F 
   928)      5021.8  Rx         0001  8  05 01 14 00 D4 5F 12 00 
   929)      5021.9  Rx         0001  8  05 01 DA C2 CA 88 F4 9F 
   930)      5022.0  Rx         0001  8  05 01 16 00 47 F9 78 00 
   931)      5022.0  Rx         0001  8  05 01 3D 14 DC 07 A9 96 
   932)      5022.0  Rx         0001  8  05 01 2D 11 DC 07 A9 86 
   933)      5022.0  Rx         0001  8  05 01 F1 98 27 F9 41 00 
   934)      5022.1  Rx         0001  8  05 01 47 F9 19 00 ED 04 
   935)      5023.8  Rx         0001  2  02 01 
   936)      5024.9  Rx         0002  6  02 01 00 42 00 00 
   937)      5026.0  Rx         0001  8  05 01 07 F8 20 00 DC 07 
   938)      5026.0  Rx         0001  8  05 01 B9 86 08 61 18 70 
   939)      5026.0  Rx         0001  8  05 01 DC 07 A9 96 3D EF 
   940)      5026.1  Rx         0001  8  05 01 DA C2 CE A7 DA C2 
   941)      5026.1  Rx         0001  8  05 01 AE A2 F1 F4 D4 BF 
   942)      5026.1  Rx         0001  8  05 01 12 00 D4 CF 14 00 
   943)      5026.2  Rx         0001  8  05 01 70 BC 3D 08 48 90 
   944)      5026.2  Rx         0001  8  05 01 3D 05 49 30 3D 4E 
   945)      5026.2  Rx         0001  8  05 01 9A FA 4C 20 E0 19 
   946)      5026.3  Rx         0001  8  05 01 2E FA 9A FA 11 20 
   947)      5026.3  Rx         0001  8  05 01 9A FA 05 10 49 30 
   948)      5027.9  Rx         0001  2  02 01 
   949)      5029.2  Rx         0002  6  02 01 00 42 00 00 
   950)      5030.3  Rx         0001  8  05 01 2D 02 DA C2 CA A3 
   951)      5030.3  Rx         0001  8  05 01 2E FA F4 9F 16 00 
   952)      5030.3  Rx         0001  8  05 01 47 F9 6F 00 3D 05 
   953)      5030.4  Rx         0001  8  05 01 C0 FB 40 9B AD 02 
   954)      5030.4  Rx         0001  8  05 01 C0 F9 08 91 9A FA 
   955)      5030.4  Rx         0001  8  05 01 04 20 49 30 2D 02 
   956)      5030.4  Rx         0001  8  05 01 09 F2 08 92 8A FA 
   957)      5030.5  Rx         0001  8  05 01 0F 00 E0 06 4A FA 
   958)      5030.5  Rx         0001  8  05 01 F6 10 5C 46 06 F6 
   959)      5030.5  Rx         0001  8  05 01 20 00 0D 03 DA C2 
   960)      5030.6  Rx         0001  8  05 01 54 A7 28 81 40 89 
   961)      5031.8  Rx         0001  2  02 01 
   962)      5033.5  Rx         0002  6  02 01 00 42 00 00 
   963)      5034.6  Rx         0001  8  05 01 BD 03 C0 FB 40 8B 
   964)      5034.6  Rx         0001  8  05 01 AD F8 9A FA 07 20 
   965)      5034.6  Rx         0001  8  05 01 49 30 2D 05 DA C2 
   966)      5034.7  Rx         0001  8  05 01 CA A3 0D 02 DA C2 
   967)      5034.7  Rx         0001  8  05 01 EE A7 C0 FB 40 9B 
   968)      5034.7  Rx         0001  8  05 01 AD FB DA C2 CE A7 
   969)      5034.8  Rx         0001  8  05 01 F0 B2 F0 C3 F0 2A 
   970)      5034.8  Rx         0001  8  05 01 7E F2 88 0F D4 DF 
   971)      5034.8  Rx         0001  8  05 01 0E 00 88 DF E6 F4 
   972)      5034.8  Rx         0001  8  05 01 FF 7F F0 38 D4 DF 
   973)      5034.9  Rx         0001  8  05 01 14 00 D4 EF 12 00 
   974)      5036.9  Rx         0001  2  02 01 
   975)      5037.8  Rx         0002  6  02 01 00 42 00 00 
   976)      5038.9  Rx         0001  8  05 01 DA C2 4E 80 08 F4 
   977)      5039.0  Rx         0001  8  05 01 06 FF 18 00 FA C2 
   978)      5039.0  Rx         0001  8  05 01 1A A3 28 F2 B3 FF 
   979)      5039.0  Rx         0001  8  05 01 00 03 B3 FF 20 03 
   980)      5039.1  Rx         0001  8  05 01 B3 FF 08 01 88 0F 
   981)      5039.1  Rx         0001  8  05 01 88 1F 88 6F 88 7F 
   982)      5039.1  Rx         0001  8  05 01 88 8F 88 9F 88 AF 
   983)      5039.1  Rx         0001  8  05 01 26 FF 0C 00 F1 C6 
   984)      5039.2  Rx         0001  8  05 01 E1 76 E4 4F 08 00 
   985)      5039.2  Rx         0001  8  05 01 E4 5F 0B 00 C4 BF 
   986)      5039.2  Rx         0001  8  05 01 06 00 C4 CF 04 00 
   987)      5040.9  Rx         0001  2  02 01 
   988)      5042.2  Rx         0002  6  02 01 00 42 00 00 
   989)      5043.2  Rx         0001  8  05 01 C4 DF 02 00 E4 AF 
   990)      5043.3  Rx         0001  8  05 01 09 00 E4 BF 0A 00 
   991)      5043.3  Rx         0001  8  05 01 F0 84 F0 9E F1 D7 
   992)      5043.3  Rx         0001  8  05 01 DA C2 CA 84 F1 4C 
   993)      5043.3  Rx         0001  8  05 01 F1 5D DA C2 4A A2 
   994)      5043.4  Rx         0001  8  05 01 E6 FD FF FF 1B 8D 
   995)      5043.4  Rx         0001  8  05 01 A4 0F 1C FF E1 1E 
   996)      5043.4  Rx         0001  8  05 01 E1 1F E6 FB 80 96 
   997)      5043.5  Rx         0001  8  05 01 E6 FC 98 4C F2 F3 
   998)      5043.5  Rx         0001  8  05 01 0C FE F2 F2 0E FE 
   999)      5043.5  Rx         0001  8  05 01 DA C2 7E 8D F0 42 
  1000)      5044.9  Rx         0001  2  02 01 
  1001)      5046.4  Rx         0002  6  02 01 00 42 00 00 
  1002)      5047.5  Rx         0001  8  05 01 F0 53 F0 2B F0 3C 
  1003)      5047.6  Rx         0001  8  05 01 DA C2 A0 6D F0 B2 
  1004)      5047.6  Rx         0001  8  05 01 F0 C3 0D 24 F1 4F 
  1005)      5047.6  Rx         0001  8  05 01 DA C2 A8 9D F0 4B 
  1006)      5047.6  Rx         0001  8  05 01 F0 5C DA C2 E6 92 
  1007)      5047.7  Rx         0001  8  05 01 F1 44 3D 19 D4 DF 
  1008)      5047.7  Rx         0001  8  05 01 02 00 E6 F2 00 B4 
  1009)      5047.8  Rx         0001  8  05 01 DC 09 B9 ED C0 FD 
  1010)      5047.8  Rx         0001  8  05 01 1B D8 D4 DF 06 00 
  1011)      5047.8  Rx         0001  8  05 01 E6 F3 C4 04 F2 F4 
  1012)      5047.8  Rx         0001  8  05 01 0E FE F2 F5 0C FE 
  1013)      5049.9  Rx         0001  2  02 01 
  1014)      5050.7  Rx         0002  6  02 01 00 42 00 00 
  1015)      5051.8  Rx         0001  8  05 01 DA C2 5A 82 81 20 
  1016)      5051.8  Rx         0001  8  05 01 D4 EF 04 00 DC 0E 
  1017)      5051.9  Rx         0001  8  05 01 B8 2D E1 19 B9 9F 
  1018)      5051.9  Rx         0001  8  05 01 01 FF 09 E1 47 FE 
  1019)      5051.9  Rx         0001  8  05 01 08 00 ED 02 A9 9F 
  1020)      5052.0  Rx         0001  8  05 01 2D D7 F4 9F 08 00 
  1021)      5052.0  Rx         0001  8  05 01 C0 9B E0 02 A3 B2 
  1022)      5052.0  Rx         0001  8  05 01 62 00 C3 55 20 00 
  1023)      5052.0  Rx         0001  8  05 01 C3 33 08 00 E6 FB 
  1024)      5052.1  Rx         0001  8  05 01 60 FE E0 0C D4 DF 
  1025)      5052.1  Rx         0001  8  05 01 06 00 00 B5 10 C3 
  1026)      5053.9  Rx         0001  2  02 01 
  1027)      5055.1  Rx         0002  6  02 01 00 42 00 00 
  1028)      5056.2  Rx         0001  8  05 01 D4 EF 04 00 DC 0E 
  1029)      5056.3  Rx         0001  8  05 01 A8 DD DC 0C B8 DB 
  1030)      5056.3  Rx         0001  8  05 01 F4 9F 09 00 C0 9B 
  1031)      5056.3  Rx         0001  8  05 01 06 FB 17 00 00 BB 
  1032)      5056.4  Rx         0001  8  05 01 18 20 00 BB 10 22 
  1033)      5056.4  Rx         0001  8  05 01 E6 FC 18 D8 E6 FD 
  1034)      5056.4  Rx         0001  8  05 01 C2 00 00 BC 10 2D 
  1035)      5056.4  Rx         0001  8  05 01 F0 CB F0 D2 08 C1 
  1036)      5056.5  Rx         0001  8  05 01 18 D0 DC 02 A9 8B 
  1037)      5056.5  Rx         0001  8  05 01 DC 0D A9 9C E6 FC 
  1038)      5056.5  Rx         0001  8  05 01 C0 F1 E0 0D 00 C5 
  1039)      5057.9  Rx         0001  2  02 01 
  1040)      5059.4  Rx         0002  6  02 01 00 42 00 00 
  1041)      5060.5  Rx         0001  8  05 01 10 D3 67 F8 0F 00 
  1042)      5060.6  Rx         0001  8  05 01 C0 8B F1 89 69 83 
  1043)      5060.6  Rx         0001  8  05 01 5C 2B C0 8E 69 94 
  1044)      5060.6  Rx         0001  8  05 01 70 BE C0 9E 5C 6E 
  1045)      5060.7  Rx         0001  8  05 01 70 BE DC 0D B8 BC 
  1046)      5060.7  Rx         0001  8  05 01 F4 9F 09 00 C0 9B 
  1047)      5060.8  Rx         0001  8  05 01 E0 6C 1B BC E6 FD 
  1048)      5060.8  Rx         0001  8  05 01 8A A1 F2 FB 0C FE 
  1049)      5060.8  Rx         0001  8  05 01 F2 FC 0E FE E6 FE 
  1050)      5060.9  Rx         0001  8  05 01 00 00 00 CD 10 BE 
  1051)      5060.9  Rx         0001  8  05 01 F0 DC F0 EB 08 D4 
  1052)      5062.8  Rx         0001  2  02 01 
  1053)      5063.7  Rx         0002  6  02 01 00 42 00 00 
  1054)      5064.8  Rx         0001  8  05 01 18 E0 F4 9F 0A 00 
  1055)      5064.9  Rx         0001  8  05 01 DC 0E B9 9D F0 DC 
  1056)      5064.9  Rx         0001  8  05 01 F0 EB 08 D5 18 E0 
  1057)      5065.0  Rx         0001  8  05 01 08 C2 18 B0 F4 9F 
  1058)      5065.1  Rx         0001  8  05 01 20 00 DC 0E B9 9D 
  1059)      5065.1  Rx         0001  8  05 01 E6 FD FF FF DC 0B 
  1060)      5065.1  Rx         0001  8  05 01 B8 DC F4 9F 0B 00 
  1061)      5065.2  Rx         0001  8  05 01 49 92 3D 17 66 90 
  1062)      5065.2  Rx         0001  8  05 01 F8 FF D4 BF 02 00 
  1063)      5065.3  Rx         0001  8  05 01 DC 09 A9 9B C0 9B 
  1064)      5065.3  Rx         0001  8  05 01 28 B1 68 B7 74 FB 
  1065)      5066.9  Rx         0001  2  02 01 
  1066)      5068.1  Rx         0002  6  02 01 00 42 00 00 
  1067)      5069.3  Rx         0001  8  05 01 20 FF F6 8F 50 F0 
  1068)      5069.4  Rx         0001  8  05 01 D4 BF 06 00 D4 CF 
  1069)      5069.5  Rx         0001  8  05 01 04 00 DC 0C A8 BB 
  1070)      5069.5  Rx         0001  8  05 01 F6 FB 54 F0 6F 90 
  1071)      5069.6  Rx         0001  8  05 01 0D 17 66 90 FF F8 
  1072)      5069.6  Rx         0001  8  05 01 D4 BF 02 00 DC 09 
  1073)      5069.7  Rx         0001  8  05 01 A9 9B C0 9B 28 B1 
  1074)      5069.7  Rx         0001  8  05 01 68 B7 5C 8B 74 FB 
  1075)      5069.8  Rx         0001  8  05 01 20 FF F6 8F 52 F0 
  1076)      5069.8  Rx         0001  8  05 01 D4 BF 06 00 D4 CF 
  1077)      5069.9  Rx         0001  8  05 01 04 00 DC 0C A8 BB 
  1078)      5071.8  Rx         0001  2  02 01 
  1079)      5072.5  Rx         0002  6  02 01 00 42 00 00 
  1080)      5073.6  Rx         0001  8  05 01 F6 FB 56 F0 EF 90 
  1081)      5073.6  Rx         0001  8  05 01 06 FF 0C 00 98 AF 
  1082)      5073.7  Rx         0001  8  05 01 98 9F 98 8F 98 7F 
  1083)      5073.7  Rx         0001  8  05 01 98 6F 98 1F 98 0F 
  1084)      5073.7  Rx         0001  8  05 01 94 0F 5E FE 08 F2 
  1085)      5073.8  Rx         0001  8  05 01 94 0F 5C FE 08 F2 
  1086)      5073.8  Rx         0001  8  05 01 94 0F DE FF 08 F2 
  1087)      5073.8  Rx         0001  8  05 01 DB 00 88 0F 88 1F 
  1088)      5073.8  Rx         0001  8  05 01 88 6F 88 7F 88 8F 
  1089)      5073.9  Rx         0001  8  05 01 88 9F 88 AF 26 FF 
  1090)      5073.9  Rx         0001  8  05 01 08 00 F0 D3 F1 D8 
  1091)      5075.9  Rx         0001  2  02 01 
  1092)      5076.8  Rx         0002  6  02 01 00 42 00 00 
  1093)      5077.9  Rx         0001  8  05 01 E4 5F 06 00 E4 9F 
  1094)      5077.9  Rx         0001  8  05 01 02 00 F1 BA E0 0B 
  1095)      5078.0  Rx         0001  8  05 01 C4 BF 04 00 49 47 
  1096)      5078.0  Rx         0001  8  05 01 ED 09 49 D1 3D 0B 
  1097)      5078.0  Rx         0001  8  05 01 47 F9 2E 00 8D 04 
  1098)      5078.1  Rx         0001  8  05 01 47 F9 31 00 EA F0 
  1099)      5078.1  Rx         0001  8  05 01 94 15 E6 FB 22 00 
  1100)      5078.1  Rx         0001  8  05 01 EA 00 62 17 46 FD 
  1101)      5078.1  Rx         0001  8  05 01 32 00 8D 03 46 FD 
  1102)      5078.2  Rx         0001  8  05 01 E8 03 FD 04 E6 FB 
  1103)      5078.2  Rx         0001  8  05 01 1F 00 EA 00 62 17 
  1104)      5079.9  Rx         0001  2  02 01 
  1105)      5081.1  Rx         0002  6  02 01 00 42 00 00 
  1106)      5082.2  Rx         0001  8  05 01 C0 4B E0 6C 1B BC 
  1107)      5082.2  Rx         0001  8  05 01 E6 FE 14 A5 F2 FB 
  1108)      5082.3  Rx         0001  8  05 01 0C FE F2 F1 0E FE 
  1109)      5082.3  Rx         0001  8  05 01 E6 F4 00 00 00 1E 
  1110)      5082.3  Rx         0001  8  05 01 10 B4 B8 BF DC 0B 
  1111)      5082.3  Rx         0001  8  05 01 A9 A1 EA 31 5E 17 
  1112)      5082.4  Rx         0001  8  05 01 49 D1 3D 0E F4 AF 
  1113)      5082.4  Rx         0001  8  05 01 02 00 C0 AB 1B BC 
  1114)      5082.4  Rx         0001  8  05 01 F2 FB 0C FE F2 FC 
  1115)      5082.5  Rx         0001  8  05 01 0E FE 00 CE 10 B4 
  1116)      5082.5  Rx         0001  8  05 01 DC 0B A9 9C EA 30 
  1117)      5083.9  Rx         0001  2  02 01 
  1118)      5085.4  Rx         0002  6  02 01 00 42 00 00 
  1119)      5086.5  Rx         0001  8  05 01 5E 17 F0 B1 A8 CF 
  1120)      5086.5  Rx         0001  8  05 01 08 B2 18 C0 E0 09 
  1121)      5086.5  Rx         0001  8  05 01 DC 0C A8 EB 08 B2 
  1122)      5086.6  Rx         0001  8  05 01 18 C0 DC 0C A8 CB 
  1123)      5086.6  Rx         0001  8  05 01 F0 BE F0 4C DC 04 
  1124)      5086.6  Rx         0001  8  05 01 A8 2B 08 B2 18 40 
  1125)      5086.7  Rx         0001  8  05 01 08 E4 18 C0 DC 04 
  1126)      5086.7  Rx         0001  8  05 01 A8 3B F0 72 F0 03 
  1127)      5086.7  Rx         0001  8  05 01 08 74 18 00 DC 0C 
  1128)      5086.8  Rx         0001  8  05 01 A8 BE 08 E2 18 C0 
  1129)      5086.8  Rx         0001  8  05 01 DC 00 A9 97 C0 98 
  1130)      5088.9  Rx         0001  2  02 01 
  1131)      5089.7  Rx         0002  6  02 01 00 42 00 00 
  1132)      5090.7  Rx         0001  8  05 01 DC 0C A8 CE 00 88 
  1133)      5090.8  Rx         0001  8  05 01 18 90 E6 FE 3A A2 
  1134)      5090.8  Rx         0001  8  05 01 E6 F4 00 00 00 8E 
  1135)      5090.8  Rx         0001  8  05 01 10 94 E0 0E DC 09 
  1136)      5090.8  Rx         0001  8  05 01 B8 E8 F0 4D F4 AF 
  1137)      5090.8  Rx         0001  8  05 01 06 00 DA C1 84 FD 
  1138)      5090.9  Rx         0001  8  05 01 49 D1 EA 30 54 17 
  1139)      5090.9  Rx         0001  8  05 01 F4 9F 02 00 C0 9B 
  1140)      5090.9  Rx         0001  8  05 01 E0 6C 1B BC E6 FD 
  1141)      5090.9  Rx         0001  8  05 01 14 A5 F2 FB 0C FE 
  1142)      5090.9  Rx         0001  8  05 01 F2 FC 0E FE E6 FE 
  1143)      5092.8  Rx         0001  2  02 01 
  1144)      5094.0  Rx         0002  6  02 01 00 42 00 00 
  1145)      5095.0  Rx         0001  8  05 01 00 00 00 CD 10 BE 
  1146)      5095.1  Rx         0001  8  05 01 08 C2 18 B0 D7 00 
  1147)      5095.1  Rx         0001  8  05 01 C2 00 F2 F4 0E D9 
  1148)      5095.1  Rx         0001  8  05 01 DC 0B A8 DC 08 C2 
  1149)      5095.1  Rx         0001  8  05 01 18 B0 D7 00 C2 00 
  1150)      5095.1  Rx         0001  8  05 01 F2 F5 10 D9 DC 0B 
  1151)      5095.2  Rx         0001  8  05 01 A8 BC F0 CD F0 EB 
  1152)      5095.2  Rx         0001  8  05 01 08 D4 18 B0 DC 0E 
  1153)      5095.2  Rx         0001  8  05 01 A8 6C 08 C2 18 E0 
  1154)      5095.2  Rx         0001  8  05 01 DC 0B A8 9D 08 D2 
  1155)      5095.3  Rx         0001  8  05 01 18 B0 E7 F7 FE 00 
  1156)      5096.8  Rx         0001  2  02 01 
  1157)      5098.2  Rx         0002  6  02 01 00 42 00 00 
  1158)      5099.3  Rx         0001  8  05 01 E1 14 E1 15 E1 06 
  1159)      5099.3  Rx         0001  8  05 01 DC 0E A8 AC DC 0B 
  1160)      5099.4  Rx         0001  8  05 01 A8 8D DA C2 7E 6E 
  1161)      5099.4  Rx         0001  8  05 01 DC 08 A9 49 08 91 
  1162)      5099.4  Rx         0001  8  05 01 18 80 E7 F5 FF 00 
  1163)      5099.5  Rx         0001  8  05 01 DC 08 A9 69 DA C2 
  1164)      5099.5  Rx         0001  8  05 01 82 94 DC 0A A9 46 
  1165)      5099.5  Rx         0001  8  05 01 08 61 18 A0 E1 05 
  1166)      5099.6  Rx         0001  8  05 01 DC 0A A9 66 E1 07 
  1167)      5099.6  Rx         0001  8  05 01 DA C2 C8 4D D7 40 
  1168)      5099.6  Rx         0001  8  05 01 02 00 C2 FB 54 20 
  1169)      5100.9  Rx         0001  2  02 01 
  1170)      5102.5  Rx         0002  6  02 01 00 42 00 00 
  1171)      5103.6  Rx         0001  8  05 01 E0 0C E6 FD 55 A0 
  1172)      5103.6  Rx         0001  8  05 01 E6 FE 00 00 00 BD 
  1173)      5103.7  Rx         0001  8  05 01 10 CE F4 9F 02 00 
  1174)      5103.7  Rx         0001  8  05 01 DC 0C B9 9B DC 00 
  1175)      5103.7  Rx         0001  8  05 01 A9 97 C0 9B E0 0C 
  1176)      5103.7  Rx         0001  8  05 01 E6 FD 0A A2 E6 FE 
  1177)      5103.8  Rx         0001  8  05 01 00 00 00 BD 10 CE 
  1178)      5103.8  Rx         0001  8  05 01 D7 40 02 00 F3 F8 
  1179)      5103.8  Rx         0001  8  05 01 54 20 DC 0C B9 8B 
  1180)      5103.9  Rx         0001  8  05 01 F4 9F 02 00 C0 9B 
  1181)      5103.9  Rx         0001  8  05 01 E0 6C 1B BC D7 40 
  1182)      5105.8  Rx         0001  2  02 01 
  1183)      5106.8  Rx         0002  6  02 01 00 42 00 00 
  1184)      5107.9  Rx         0001  8  05 01 02 00 25 8F 54 20 
  1185)      5107.9  Rx         0001  8  05 01 F2 FB 0C FE F2 FC 
  1186)      5108.0  Rx         0001  8  05 01 0E FE E6 FD 14 A5 
  1187)      5108.0  Rx         0001  8  05 01 E6 FE 00 00 00 CD 
  1188)      5108.0  Rx         0001  8  05 01 10 BE E1 49 DC 0B 
  1189)      5108.1  Rx         0001  8  05 01 B9 9C E1 59 A8 BF 
  1190)      5108.1  Rx         0001  8  05 01 DC 0B B9 91 0D 04 
  1191)      5108.1  Rx         0001  8  05 01 E6 FB 20 00 C4 BF 
  1192)      5108.2  Rx         0001  8  05 01 04 00 D4 2F 04 00 
  1193)      5108.2  Rx         0001  8  05 01 06 FF 08 00 98 AF 
  1194)      5108.2  Rx         0001  8  05 01 98 9F 98 8F 98 7F 
  1195)      5109.9  Rx         0001  2  02 01 
  1196)      5111.1  Rx         0002  6  02 01 00 42 00 00 
  1197)      5112.2  Rx         0001  8  05 01 98 6F 98 1F 98 0F 
  1198)      5112.2  Rx         0001  8  05 01 DB 00 88 0F 88 1F 
  1199)      5112.3  Rx         0001  8  05 01 88 6F 88 7F 88 8F 
  1200)      5112.3  Rx         0001  8  05 01 88 9F 88 AF 26 FF 
  1201)      5112.3  Rx         0001  8  05 01 0C 00 F0 82 F0 93 
  1202)      5112.4  Rx         0001  8  05 01 E4 8F 08 00 E0 0B 
  1203)      5112.4  Rx         0001  8  05 01 C4 BF 0A 00 48 81 
  1204)      5112.4  Rx         0001  8  05 01 38 30 8D 0E F0 B9 
  1205)      5112.5  Rx         0001  8  05 01 46 F8 40 42 36 FB 
  1206)      5112.5  Rx         0001  8  05 01 0F 00 ED 08 F4 9F 
  1207)      5112.5  Rx         0001  8  05 01 08 00 49 91 8D 04 
  1208)      5113.9  Rx         0001  2  02 01 
  1209)      5115.4  Rx         0002  6  02 01 00 42 00 00 
  1210)      5116.5  Rx         0001  8  05 01 47 F9 10 00 EA F0 
  1211)      5116.5  Rx         0001  8  05 01 CC 17 E6 FB 1F 00 
  1212)      5116.6  Rx         0001  8  05 01 C4 BF 0A 00 EA 00 
  1213)      5116.6  Rx         0001  8  05 01 92 19 E1 09 D7 40 
  1214)      5116.6  Rx         0001  8  05 01 02 00 43 F9 D1 2E 
  1215)      5116.7  Rx         0001  8  05 01 EA 30 92 19 DA C2 
  1216)      5116.7  Rx         0001  8  05 01 FC 95 E0 3B D7 40 
  1217)      5116.7  Rx         0001  8  05 01 81 00 F6 FB 0C 0A 
  1218)      5116.8  Rx         0001  8  05 01 CC 00 CC 00 E0 1B 
  1219)      5116.8  Rx         0001  8  05 01 D7 40 81 00 F6 FB 
  1220)      5116.8  Rx         0001  8  05 01 10 0A F0 28 F0 39 
  1221)      5118.9  Rx         0001  2  02 01 
  1222)      5119.7  Rx         0002  6  02 01 00 42 00 00 
  1223)      5120.8  Rx         0001  8  05 01 DA C2 7E 8D E6 F5 
  1224)      5120.9  Rx         0001  8  05 01 00 45 E0 04 DA C2 
  1225)      5120.9  Rx         0001  8  05 01 08 75 E6 F4 80 96 
  1226)      5120.9  Rx         0001  8  05 01 E6 F5 98 4C DA C2 
  1227)      5121.0  Rx         0001  8  05 01 A0 6D C4 2F 02 00 
  1228)      5121.0  Rx         0001  8  05 01 B8 3F E6 F7 00 C0 
  1229)      5121.0  Rx         0001  8  05 01 E6 F9 7F 44 E0 0B 
  1230)      5121.1  Rx         0001  8  05 01 C4 BF 04 00 C4 BF 
  1231)      5121.1  Rx         0001  8  05 01 06 00 E0 18 F0 28 
  1232)      5121.1  Rx         0001  8  05 01 DA C2 AA 9D D4 4F 
  1233)      5121.2  Rx         0001  8  05 01 02 00 A8 5F DA C2 
  1234)      5122.5  Rx         0001  2  02 01 
  1235)      5124.0  Rx         0002  6  02 01 00 42 00 00 
  1236)      5125.3  Rx         0001  8  05 01 A0 6D DA C2 80 95 
  1237)      5125.5  Rx         0001  8  05 01 F0 A2 28 21 46 F2 
  1238)      5125.5  Rx         0001  8  05 01 00 04 EA 90 8E 18 
  1239)      5125.6  Rx         0001  8  05 01 F0 28 DA C2 AA 9D 
  1240)      5125.6  Rx         0001  8  05 01 F0 B2 F0 C3 F0 2A 
  1241)      5125.7  Rx         0001  8  05 01 DA C2 AA 9D F0 42 
  1242)      5125.7  Rx         0001  8  05 01 F0 53 F0 2B F0 3C 
  1243)      5125.7  Rx         0001  8  05 01 DA C2 A0 6D D4 4F 
  1244)      5125.8  Rx         0001  8  05 01 02 00 A8 5F DA C2 
  1245)      5125.8  Rx         0001  8  05 01 C4 9C F0 B2 F0 47 
  1246)      5125.9  Rx         0001  8  05 01 F0 59 DA C2 9E 92 
  1247)      5127.4  Rx         0001  2  02 01 
  1248)      5128.5  Rx         0002  6  02 01 00 42 00 00 
  1249)      5129.5  Rx         0001  8  05 01 F1 44 3D 06 F0 7B 
  1250)      5129.7  Rx         0001  8  05 01 F0 93 C4 8F 06 00 
  1251)      5129.7  Rx         0001  8  05 01 C4 AF 04 00 86 F8 
  1252)      5129.8  Rx         0001  8  05 01 FF 03 8D CD D4 BF 
  1253)      5129.8  Rx         0001  8  05 01 04 00 48 B0 FD 11 
  1254)      5129.8  Rx         0001  8  05 01 D7 40 81 00 F6 8E 
  1255)      5129.9  Rx         0001  8  05 01 1C 0A 28 B1 EF FB 
  1256)      5129.9  Rx         0001  8  05 01 D7 40 81 00 F6 FB 
  1257)      5129.9  Rx         0001  8  05 01 1E 0A D4 BF 06 00 
  1258)      5130.0  Rx         0001  8  05 01 FF FB D7 40 81 00 
  1259)      5130.0  Rx         0001  8  05 01 F6 FB 04 0A E7 F4 
  1260)      5131.3  Rx         0001  2  02 01 
  1261)      5132.7  Rx         0002  6  02 01 00 42 00 00 
  1262)      5133.8  Rx         0001  8  05 01 61 00 E1 B5 DA C2 
  1263)      5133.9  Rx         0001  8  05 01 4A A2 E7 F4 62 00 
  1264)      5133.9  Rx         0001  8  05 01 E1 B5 DA C2 4A A2 
  1265)      5133.9  Rx         0001  8  05 01 E7 F4 60 00 E1 05 
  1266)      5134.0  Rx         0001  8  05 01 DA C2 4A A2 E6 FB 
  1267)      5134.0  Rx         0001  8  05 01 14 00 D7 40 81 00 
  1268)      5134.0  Rx         0001  8  05 01 F6 FB 20 0A E6 FB 
  1269)      5134.1  Rx         0001  8  05 01 03 01 D7 40 81 00 
  1270)      5134.1  Rx         0001  8  05 01 F6 FB 30 0A F4 9F 
  1271)      5134.1  Rx         0001  8  05 01 08 00 C0 9B 28 B1 
  1272)      5134.2  Rx         0001  8  05 01 5C 8B 76 FB 3F 00 
  1273)      5135.5  Rx         0001  2  02 01 
  1274)      5137.0  Rx         0002  6  02 01 00 42 00 00 
  1275)      5138.2  Rx         0001  8  05 01 D7 40 81 00 F6 FB 
  1276)      5138.2  Rx         0001  8  05 01 32 0A E6 FB 01 05 
  1277)      5138.2  Rx         0001  8  05 01 D7 40 81 00 F6 FB 
  1278)      5138.3  Rx         0001  8  05 01 3C 0A E6 FB 47 0F 
  1279)      5138.3  Rx         0001  8  05 01 D7 50 81 00 F6 FB 
  1280)      5138.3  Rx         0001  8  05 01 40 0A F6 8E 10 0B 
  1281)      5138.3  Rx         0001  8  05 01 E6 FB 00 05 D7 40 
  1282)      5138.3  Rx         0001  8  05 01 81 00 F6 FB 12 0B 
  1283)      5138.4  Rx         0001  8  05 01 E6 FC 20 00 D7 70 
  1284)      5138.4  Rx         0001  8  05 01 81 00 F6 FC 14 0B 
  1285)      5138.4  Rx         0001  8  05 01 F6 FB 16 0B F6 8E 
  1286)      5140.5  Rx         0001  2  02 01 
  1287)      5141.4  Rx         0002  6  02 01 00 42 00 00 
  1288)      5142.4  Rx         0001  8  05 01 14 0A F6 8E 16 0A 
  1289)      5142.5  Rx         0001  8  05 01 D7 40 0B 03 C2 FC 
  1290)      5142.5  Rx         0001  8  05 01 18 18 D7 40 0B 03 
  1291)      5142.5  Rx         0001  8  05 01 C2 FD 19 18 5C 2C 
  1292)      5142.6  Rx         0001  8  05 01 70 CD 6F FC F6 FC 
  1293)      5142.6  Rx         0001  8  05 01 32 F1 D7 40 0B 03 
  1294)      5142.6  Rx         0001  8  05 01 C2 FC 1A 18 5C CC 
  1295)      5142.7  Rx         0001  8  05 01 70 CB D7 40 0B 03 
  1296)      5142.7  Rx         0001  8  05 01 C2 FB 1B 18 5C 1B 
  1297)      5142.7  Rx         0001  8  05 01 06 FB C0 FE E0 0D 
  1298)      5142.7  Rx         0001  8  05 01 DC 0D B8 CB DA C2 
  1299)      5144.7  Rx         0001  2  02 01 
  1300)      5145.6  Rx         0002  6  02 01 00 42 00 00 
  1301)      5146.7  Rx         0001  8  05 01 C6 8D E1 19 D7 40 
  1302)      5146.8  Rx         0001  8  05 01 02 00 F7 F9 D1 2E 
  1303)      5146.8  Rx         0001  8  05 01 D4 2F 0A 00 06 FF 
  1304)      5146.8  Rx         0001  8  05 01 0C 00 98 AF 98 9F 
  1305)      5146.8  Rx         0001  8  05 01 98 8F 98 7F 98 6F 
  1306)      5146.9  Rx         0001  8  05 01 98 1F 98 0F DB 00 
  1307)      5146.9  Rx         0001  8  05 01 88 0F 88 1F 88 6F 
  1308)      5146.9  Rx         0001  8  05 01 88 7F 88 8F 88 9F 
  1309)      5147.0  Rx         0001  8  05 01 88 AF 26 FF 0C 00 
  1310)      5147.0  Rx         0001  8  05 01 B8 2F C4 3F 02 00 
  1311)      5147.0  Rx         0001  8  05 01 C4 4F 0A 00 C4 5F 
  1312)      5148.4  Rx         0001  2  02 01 
  1313)      5149.9  Rx         0002  6  02 01 00 42 00 00 
  1314)      5151.0  Rx         0001  8  05 01 08 00 C4 BF 06 00 
  1315)      5151.1  Rx         0001  8  05 01 C4 CF 04 00 F0 24 
  1316)      5151.1  Rx         0001  8  05 01 F0 35 F0 4B F0 5C 
  1317)      5151.1  Rx         0001  8  05 01 A8 BF D4 CF 02 00 
  1318)      5151.2  Rx         0001  8  05 01 06 FB 0C 00 18 C0 
  1319)      5151.2  Rx         0001  8  05 01 DA C2 C0 59 DC 0C 
  1320)      5151.2  Rx         0001  8  05 01 A9 9B C0 9B 48 B6 
  1321)      5151.3  Rx         0001  8  05 01 EA E0 86 1B 5C 1B 
  1322)      5151.3  Rx         0001  8  05 01 D7 00 C2 00 D4 BB 
  1323)      5151.3  Rx         0001  8  05 01 80 C4 9C 0B E0 04 
  1324)      5151.4  Rx         0001  8  05 01 E0 05 DA C2 E6 92 
  1325)      5153.5  Rx         0001  2  02 01 
  1326)      5154.2  Rx         0002  6  02 01 00 42 00 00 
  1327)      5155.3  Rx         0001  8  05 01 F1 44 EA 20 68 1B 
  1328)      5155.4  Rx         0001  8  05 01 A8 BF D4 CF 02 00 
  1329)      5155.4  Rx         0001  8  05 01 DC 0C A8 DB 08 B2 
  1330)      5155.4  Rx         0001  8  05 01 18 C0 E1 19 DC 0C 
  1331)      5155.5  Rx         0001  8  05 01 A8 BB 06 FD 2A 00 
  1332)      5155.5  Rx         0001  8  05 01 18 B0 DC 0B B9 9D 
  1333)      5155.6  Rx         0001  8  05 01 A8 BF D4 CF 02 00 
  1334)      5155.6  Rx         0001  8  05 01 DC 0C A8 2B 08 B2 
  1335)      5155.7  Rx         0001  8  05 01 18 C0 F0 72 DC 0C 
  1336)      5155.7  Rx         0001  8  05 01 A8 3B F0 A3 06 F7 
  1337)      5155.7  Rx         0001  8  05 01 10 00 18 A0 F0 B7 
  1338)      5157.5  Rx         0001  2  02 01 
  1339)      5158.5  Rx         0002  6  02 01 00 42 00 00 
  1340)      5159.6  Rx         0001  8  05 01 F0 CA DC 0C A8 9B 
  1341)      5159.6  Rx         0001  8  05 01 08 B2 18 C0 DC 0C 
  1342)      5159.7  Rx         0001  8  05 01 A8 8B DA C2 EA 9E 
  1343)      5159.7  Rx         0001  8  05 01 DA C2 9E 9D F0 42 
  1344)      5159.7  Rx         0001  8  05 01 F0 53 F0 29 F0 38 
  1345)      5159.8  Rx         0001  8  05 01 DA C2 C0 59 DC 0A 
  1346)      5159.8  Rx         0001  8  05 01 B8 27 08 72 18 A0 
  1347)      5159.8  Rx         0001  8  05 01 DC 0A B8 37 EA 00 
  1348)      5159.8  Rx         0001  8  05 01 86 1B A8 BF D4 DF 
  1349)      5159.9  Rx         0001  8  05 01 02 00 DC 0D A8 CB 
  1350)      5159.9  Rx         0001  8  05 01 08 B2 18 D0 DC 0D 
  1351)      5161.4  Rx         0001  2  02 01 
  1352)      5162.8  Rx         0002  6  02 01 00 42 00 00 
  1353)      5163.9  Rx         0001  8  05 01 A8 BB F0 DC F0 EB 
  1354)      5164.0  Rx         0001  8  05 01 06 FD 1C 00 18 E0 
  1355)      5164.0  Rx         0001  8  05 01 DC 0E A8 2D 08 D2 
  1356)      5164.0  Rx         0001  8  05 01 18 E0 DC 0E A8 3D 
  1357)      5164.1  Rx         0001  8  05 01 F0 DC F0 EB 06 FD 
  1358)      5164.1  Rx         0001  8  05 01 20 00 18 E0 DC 0E 
  1359)      5164.1  Rx         0001  8  05 01 A8 4D 08 D2 18 E0 
  1360)      5164.1  Rx         0001  8  05 01 DC 0E A8 5D DA C2 
  1361)      5164.2  Rx         0001  8  05 01 C4 59 F0 DC F0 EB 
  1362)      5164.2  Rx         0001  8  05 01 06 FD 24 00 18 E0 
  1363)      5164.2  Rx         0001  8  05 01 DC 0E A8 4D 08 D2 
  1364)      5165.5  Rx         0001  2  02 01 
  1365)      5167.1  Rx         0002  6  02 01 00 42 00 00 
  1366)      5168.2  Rx         0001  8  05 01 18 E0 DC 0E A8 5D 
  1367)      5168.3  Rx         0001  8  05 01 DA C2 C4 59 D4 4F 
  1368)      5168.3  Rx         0001  8  05 01 06 00 D4 5F 04 00 
  1369)      5168.4  Rx         0001  8  05 01 DA C2 C4 59 F0 4C 
  1370)      5168.5  Rx         0001  8  05 01 F0 5B 06 F4 28 00 
  1371)      5168.6  Rx         0001  8  05 01 18 50 F0 D2 F0 E3 
  1372)      5168.6  Rx         0001  8  05 01 DC 05 A8 24 DA C2 
  1373)      5168.6  Rx         0001  8  05 01 9E 9D F0 42 F0 53 
  1374)      5168.7  Rx         0001  8  05 01 F0 2D F0 3E DA C2 
  1375)      5168.7  Rx         0001  8  05 01 56 92 F1 44 EA 20 
  1376)      5168.7  Rx         0001  8  05 01 68 1B F0 7C F0 AB 
  1377)      5170.4  Rx         0001  2  02 01 
  1378)      5171.4  Rx         0002  6  02 01 00 42 00 00 
  1379)      5172.6  Rx         0001  8  05 01 06 F7 10 00 18 A0 
  1380)      5172.6  Rx         0001  8  05 01 F0 D7 F0 EA DC 0E 
  1381)      5172.6  Rx         0001  8  05 01 A8 9D 08 D2 18 E0 
  1382)      5172.7  Rx         0001  8  05 01 F0 2C F0 3B DC 0E 
  1383)      5172.7  Rx         0001  8  05 01 A8 8D DA C2 EA 9E 
  1384)      5172.7  Rx         0001  8  05 01 DA C2 9E 9D F0 42 
  1385)      5172.8  Rx         0001  8  05 01 F0 53 F0 29 F0 38 
  1386)      5172.8  Rx         0001  8  05 01 DA C2 C0 59 DC 0A 
  1387)      5172.8  Rx         0001  8  05 01 B8 27 08 72 18 A0 
  1388)      5172.8  Rx         0001  8  05 01 E1 19 DC 0A B8 37 
  1389)      5172.9  Rx         0001  8  05 01 A8 BF D4 CF 02 00 
  1390)      5174.4  Rx         0001  2  02 01 
  1391)      5175.8  Rx         0002  6  02 01 00 42 00 00 
  1392)      5176.9  Rx         0001  8  05 01 DC 0C A8 DB 08 B2 
  1393)      5177.0  Rx         0001  8  05 01 18 C0 DC 0C A8 BB 
  1394)      5177.0  Rx         0001  8  05 01 06 FD 2A 00 18 B0 
  1395)      5177.0  Rx         0001  8  05 01 0D 0D A8 BF D4 CF 
  1396)      5177.1  Rx         0001  8  05 01 02 00 DC 0C A8 DB 
  1397)      5177.1  Rx         0001  8  05 01 08 B2 18 C0 E1 09 
  1398)      5177.1  Rx         0001  8  05 01 DC 0C A8 BB 06 FD 
  1399)      5177.1  Rx         0001  8  05 01 2A 00 18 B0 DC 0B 
  1400)      5177.2  Rx         0001  8  05 01 B9 9D A8 BF D4 CF 
  1401)      5177.2  Rx         0001  8  05 01 02 00 DC 0C A8 2B 
  1402)      5177.2  Rx         0001  8  05 01 08 B2 18 C0 D4 4F 
  1403)      5178.5  Rx         0001  2  02 01 
  1404)      5180.1  Rx         0002  6  02 01 00 42 00 00 
  1405)      5181.2  Rx         0001  8  05 01 0A 00 DC 0C A8 3B 
  1406)      5181.2  Rx         0001  8  05 01 D4 5F 08 00 DA C2 
  1407)      5181.3  Rx         0001  8  05 01 78 87 A8 BF D4 CF 
  1408)      5181.3  Rx         0001  8  05 01 02 00 DC 0C A8 2B 
  1409)      5181.3  Rx         0001  8  05 01 08 B2 18 C0 D4 4F 
  1410)      5181.4  Rx         0001  8  05 01 06 00 DC 0C A8 3B 
  1411)      5181.4  Rx         0001  8  05 01 D4 5F 04 00 DA C1 
  1412)      5181.4  Rx         0001  8  05 01 72 26 06 FF 0C 00 
  1413)      5181.5  Rx         0001  8  05 01 98 AF 98 9F 98 8F 
  1414)      5181.5  Rx         0001  8  05 01 98 7F 98 6F 98 1F 
  1415)      5181.5  Rx         0001  8  05 01 98 0F DB 00 DA C2 
  1416)      5183.5  Rx         0001  2  02 01 
  1417)      5184.4  Rx         0002  6  02 01 00 42 00 00 
  1418)      5185.5  Rx         0001  8  05 01 4A A3 48 20 EA 20 
  1419)      5185.6  Rx         0001  8  05 01 80 1D 08 21 0E F2 
  1420)      5185.6  Rx         0001  8  05 01 08 24 F0 12 D7 00 
  1421)      5185.6  Rx         0001  8  05 01 E0 00 F2 FB 22 6A 
  1422)      5185.6  Rx         0001  8  05 01 D7 00 E0 00 F2 FC 
  1423)      5185.7  Rx         0001  8  05 01 24 6A 70 CB 3D 2F 
  1424)      5185.7  Rx         0001  8  05 01 E0 02 DA C2 FA A7 
  1425)      5185.7  Rx         0001  8  05 01 81 20 68 21 F0 82 
  1426)      5185.8  Rx         0001  8  05 01 08 24 DA C2 FA A7 
  1427)      5185.8  Rx         0001  8  05 01 F0 B3 46 F2 FF FF 
  1428)      5185.8  Rx         0001  8  05 01 36 FB FF FF EA 20 
  1429)      5187.3  Rx         0001  2  02 01 
  1430)      5188.7  Rx         0002  6  02 01 00 42 00 00 
  1431)      5189.8  Rx         0001  8  05 01 80 1D F0 B2 F0 C3 
  1432)      5189.9  Rx         0001  8  05 01 00 B8 18 C0 D7 00 
  1433)      5190.0  Rx         0001  8  05 01 E0 00 F6 FB 22 6A 
  1434)      5190.1  Rx         0001  8  05 01 D7 00 E0 00 F6 FC 
  1435)      5190.1  Rx         0001  8  05 01 24 6A F0 B8 BC FB 
  1436)      5190.1  Rx         0001  8  05 01 00 28 10 3B D7 00 
  1437)      5190.2  Rx         0001  8  05 01 E0 00 F6 F2 1E 6A 
  1438)      5190.3  Rx         0001  8  05 01 D7 00 E0 00 F6 F3 
  1439)      5190.3  Rx         0001  8  05 01 20 6A E0 0B DC 03 
  1440)      5190.4  Rx         0001  8  05 01 B8 B2 08 22 18 30 
  1441)      5190.4  Rx         0001  8  05 01 DC 03 B8 B2 D7 00 
  1442)      5192.4  Rx         0001  2  02 01 
  1443)      5193.1  Rx         0002  6  02 01 00 42 00 00 
  1444)      5194.1  Rx         0001  8  05 01 E0 00 F2 F9 22 6A 
  1445)      5194.2  Rx         0001  8  05 01 D7 00 E0 00 F2 F8 
  1446)      5194.2  Rx         0001  8  05 01 24 6A 0D 04 00 9B 
  1447)      5194.2  Rx         0001  8  05 01 10 8C 28 91 38 80 
  1448)      5194.3  Rx         0001  8  05 01 F0 C9 F0 D8 DC 0D 
  1449)      5194.4  Rx         0001  8  05 01 A8 BC 08 C2 18 D0 
  1450)      5194.4  Rx         0001  8  05 01 DC 0D A8 CC F0 DC 
  1451)      5194.4  Rx         0001  8  05 01 70 DB 2D 02 8A FB 
  1452)      5194.5  Rx         0001  8  05 01 EF 00 D7 00 E0 00 
  1453)      5194.6  Rx         0001  8  05 01 F6 F9 22 6A D7 00 
  1454)      5194.7  Rx         0001  8  05 01 E0 00 F6 F8 24 6A 
  1455)      5196.4  Rx         0001  2  02 01 
  1456)      5197.3  Rx         0002  6  02 01 00 42 00 00 
  1457)      5198.4  Rx         0001  8  05 01 0D 40 F0 B7 0E FB 
  1458)      5198.4  Rx         0001  8  05 01 F0 69 F0 A8 00 6B 
  1459)      5198.4  Rx         0001  8  05 01 10 A0 8A F7 36 00 
  1460)      5198.5  Rx         0001  8  05 01 F0 B6 F0 CA DC 0C 
  1461)      5198.5  Rx         0001  8  05 01 A8 DB 08 B2 18 C0 
  1462)      5198.5  Rx         0001  8  05 01 DC 0C A8 BB F0 CB 
  1463)      5198.6  Rx         0001  8  05 01 70 CD 3D 1F E0 02 
  1464)      5198.6  Rx         0001  8  05 01 DA C2 FA A7 F0 B6 
  1465)      5198.6  Rx         0001  8  05 01 F0 CA 08 B4 18 C0 
  1466)      5198.7  Rx         0001  8  05 01 40 2B 30 3C 3D 21 
  1467)      5198.7  Rx         0001  8  05 01 F0 30 81 70 18 30 
  1468)      5200.4  Rx         0001  2  02 01 
  1469)      5201.6  Rx         0002  6  02 01 00 42 00 00 
  1470)      5202.7  Rx         0001  8  05 01 81 30 F0 27 DA C2 
  1471)      5202.7  Rx         0001  8  05 01 A8 8F 46 F2 FF FF 
  1472)      5202.7  Rx         0001  8  05 01 36 F3 FF FF 2D 15 
  1473)      5202.7  Rx         0001  8  05 01 E0 00 F0 B9 F0 C8 
  1474)      5202.8  Rx         0001  8  05 01 DC 0C B8 0B DA C2 
  1475)      5202.8  Rx         0001  8  05 01 18 A7 F0 70 0D 1F 
  1476)      5202.8  Rx         0001  8  05 01 8A FD 0A 00 00 7D 
  1477)      5202.9  Rx         0001  8  05 01 10 0B F0 B9 F0 C8 
  1478)      5202.9  Rx         0001  8  05 01 DC 0C B8 7B DA C2 
  1479)      5202.9  Rx         0001  8  05 01 18 A7 F0 69 F0 A8 
  1480)      5202.9  Rx         0001  8  05 01 F0 96 F0 8A F0 B9 
  1481)      5204.4  Rx         0001  2  02 01 
  1482)      5205.9  Rx         0002  6  02 01 00 42 00 00 
  1483)      5207.0  Rx         0001  8  05 01 F0 C8 DC 0C A8 7B 
  1484)      5207.0  Rx         0001  8  05 01 08 B2 18 C0 DC 0C 
  1485)      5207.0  Rx         0001  8  05 01 A8 0B F0 B0 70 B7 
  1486)      5207.0  Rx         0001  8  05 01 2D 06 8A F7 B3 00 
  1487)      5207.1  Rx         0001  8  05 01 E0 0B 40 17 30 B0 
  1488)      5207.1  Rx         0001  8  05 01 ED AF F0 B0 70 B7 
  1489)      5207.1  Rx         0001  8  05 01 3D 3A F0 21 DA C2 
  1490)      5207.2  Rx         0001  8  05 01 FA A7 F0 A2 F0 63 
  1491)      5207.2  Rx         0001  8  05 01 46 FA FF FF 36 F3 
  1492)      5207.2  Rx         0001  8  05 01 FF FF 2D 12 DA C2 
  1493)      5207.3  Rx         0001  8  05 01 8A A3 8D 0F DA C2 
  1494)      5208.4  Rx         0001  2  02 01 
  1495)      5210.1  Rx         0002  6  02 01 00 42 00 00 
  1496)      5211.3  Rx         0001  8  05 01 8AA3FD1EF07A 
  1497)      5211.3  Rx         0001  8  05 01 81 70 68 71 F0 27 
  1498)      5211.3  Rx         0001  8  05 01 08 24 DA C2 FA A7 
  1499)      5211.4  Rx         0001  8  05 01 46 F2 FF FF 36 F3 
  1500)      5211.4  Rx         0001  8  05 01 FF FF 3D 03 E0 02 
  1501)      5211.4  Rx         0001  8  05 01 E0 03 0D 3B 00 A7 
  1502)      5211.5  Rx         0001  8  05 01 18 60 F0 BA F0 C6 
  1503)      5211.5  Rx         0001  8  05 01 20 B9 30 C8 0F FB 
  1504)      5211.5  Rx         0001  8  05 01 DC 08 B8 B9 08 92 
  1505)      5211.5  Rx         0001  8  05 01 18 80 DC 08 B8 C9 
  1506)      5211.6  Rx         0001  8  05 01 F0 9A F0 86 F0 B9 
  1507)      5213.4  Rx         0001  2  02 01 
  1508)      5214.4  Rx         0002  6  02 01 00 42 00 00 
  1509)      5215.5  Rx         0001  8  05 01 F0 C8 00 B1 18 C0 
  1510)      5215.5  Rx         0001  8  05 01 E0 0D DC 0C B8 DB 
  1511)      5215.6  Rx         0001  8  05 01 08 B2 18 C0 DC 0C 
  1512)      5215.6  Rx         0001  8  05 01 B8 DB 0D 12 F0 B1 
  1513)      5215.6  Rx         0001  8  05 01 08 B4 F0 C0 40 7B 
  1514)      5215.7  Rx         0001  8  05 01 38 C0 8D 0B F0 B9 
  1515)      5215.7  Rx         0001  8  05 01 F0 C8 00 B1 18 C0 
  1516)      5215.7  Rx         0001  8  05 01 20 71 38 00 DC 0C 
  1517)      5215.7  Rx         0001  8  05 01 B8 7B DA C2 18 A7 
  1518)      5215.8  Rx         0001  8  05 01 0D 01 F0 17 F0 C9 
  1519)      5215.8  Rx         0001  8  05 01 0F F1 F0 D8 DC 0D 
  1520)      5217.4  Rx         0001  2  02 01 
  1521)      5218.7  Rx         0002  6  02 01 00 42 00 00 
  1522)      5219.8  Rx         0001  8  05 01 B8 1C 08 C2 18 D0 
  1523)      5219.8  Rx         0001  8  05 01 E0 0B DC 0D B8 BC 
  1524)      5219.9  Rx         0001  8  05 01 F0 29 F0 38 08 24 
  1525)      5219.9  Rx         0001  8  05 01 18 30 FA C2 0A A3 
  1526)      5219.9  Rx         0001  8  05 01 28 F2 B3 FF 00 03 
  1527)      5219.9  Rx         0001  8  05 01 B3 FF 20 03 B3 FF 
  1528)      5220.0  Rx         0001  8  05 01 08 01 88 0F 88 1F 
  1529)      5220.0  Rx         0001  8  05 01 88 6F 88 7F 88 8F 
  1530)      5220.0  Rx         0001  8  05 01 88 9F 88 AF 26 FF 
  1531)      5220.1  Rx         0001  8  05 01 0C 00 C4 4F 08 00 
  1532)      5220.1  Rx         0001  8  05 01 C4 5F 0A 00 49 47 
  1533)      5222.0  Rx         0001  2  02 01 
  1534)      5223.1  Rx         0002  6  02 01 00 42 00 00 
  1535)      5224.1  Rx         0001  8  05 01 EA F0 36 1E E6 FA 
  1536)      5224.1  Rx         0001  8  05 01 22 00 EA 00 FC 1F 
  1537)      5224.2  Rx         0001  8  05 01 C0 4B E0 6C 1B BC 
  1538)      5224.2  Rx         0001  8  05 01 E6 FD 14 A5 F2 FB 
  1539)      5224.2  Rx         0001  8  05 01 0C FE F2 FC 0E FE 
  1540)      5224.3  Rx         0001  8  05 01 E6 FE 00 00 00 CD 
  1541)      5224.3  Rx         0001  8  05 01 10 BE DC 0B A9 9C 
  1542)      5224.3  Rx         0001  8  05 01 49 95 EA 31 F8 1F 
  1543)      5224.3  Rx         0001  8  05 01 08 C2 18 B0 E0 05 
  1544)      5224.4  Rx         0001  8  05 01 DC 0B A8 DC 08 C2 
  1545)      5224.4  Rx         0001  8  05 01 18 B0 DC 0B A8 BC 
  1546)      5226.1  Rx         0001  2  02 01 
  1547)      5227.3  Rx         0002  6  02 01 00 42 00 00 
  1548)      5228.4  Rx         0001  8  05 01 F0 CD F0 EB 08 D4 
  1549)      5228.4  Rx         0001  8  05 01 18 B0 DC 0E A8 8C 
  1550)      5228.5  Rx         0001  8  05 01 08 C2 18 E0 DC 0B 
  1551)      5228.5  Rx         0001  8  05 01 A8 AD 08 D2 18 B0 
  1552)      5228.5  Rx         0001  8  05 01 DC 0E A8 9C DC 0B 
